date Wed Jul 29 12:01:00 2026
base hex  timestamps absolute
internal events logged
// 模拟 ECU: EMS, BMS, ABS, TCU, BCM
Begin Triggerblock
   0.000000 1      201             Rx   d 8 00 0C 94 41 00 03 31 00
   0.010000 1      201             Rx   d 8 00 0C A8 41 00 06 25 00
   0.010000 1      528             Rx   d 8 00 04 00 00 00 00 00 02
   0.020000 1      201             Rx   d 8 00 0C BC 41 00 09 25 00
   0.030000 1      201             Rx   d 8 00 0C D0 41 00 0C 2D 00
   0.030000 1      528             Rx   d 8 00 00 00 3D 00 13 00 27
   0.040000 1      201             Rx   d 8 00 0C E4 41 00 0F 32 00
   0.040000 1      648             Rx   d 8 10 4B 03 39 00 00 00 00
   0.050000 1      201             Rx   d 8 00 0C F8 41 00 12 1F 00
   0.050000 1      528             Rx   d 8 00 39 00 09 00 00 00 22
   0.060000 1      201             Rx   d 8 00 0D 0C 41 00 15 29 00
   0.070000 1      201             Rx   d 8 00 0D 20 41 00 18 29 00
   0.070000 1      528             Rx   d 8 00 00 00 0D 00 00 00 15
   0.080000 1      201             Rx   d 8 00 0D 34 41 00 1B 29 00
   0.090000 1      201             Rx   d 8 01 0D 48 41 00 1E 27 00
   0.090000 1      384             Rx   d 8 9F 0E 4C 15 66 48 40 00
   0.090000 1      528             Rx   d 8 00 1D 00 4E 00 2C 00 36
   0.090000 1      648             Rx   d 8 10 4B 03 52 00 00 00 00
   0.100000 1      201             Rx   d 8 01 0D 5C 41 00 21 32 00
   0.110000 1      201             Rx   d 8 01 0D 70 41 00 24 21 00
   0.110000 1      528             Rx   d 8 00 24 00 23 00 2F 00 30
   0.120000 1      201             Rx   d 8 01 0D 84 41 00 27 1F 00
   0.130000 1      201             Rx   d 8 01 0D 98 41 00 2A 2D 00
   0.130000 1      528             Rx   d 8 00 00 00 4D 00 2F 00 33
   0.140000 1      201             Rx   d 8 01 0D AC 41 00 2D 23 00
   0.140000 1      648             Rx   d 8 10 4B 03 6B 00 00 00 00
   0.150000 1      201             Rx   d 8 01 0D C0 41 00 30 2C 00
   0.150000 1      528             Rx   d 8 00 33 00 05 00 36 00 16
   0.160000 1      201             Rx   d 8 01 0D D4 41 00 33 30 00
   0.170000 1      201             Rx   d 8 01 0D E8 41 00 36 2F 00
   0.170000 1      528             Rx   d 8 00 50 00 2F 00 37 00 1A
   0.180000 1      201             Rx   d 8 01 0D FC 41 00 39 2C 00
   0.190000 1      201             Rx   d 8 01 0E 10 41 00 3C 32 00
   0.190000 1      384             Rx   d 8 9F 0F 82 15 0E 43 42 00
   0.190000 1      528             Rx   d 8 00 17 00 39 00 2C 00 3A
   0.190000 1      648             Rx   d 8 10 4B 03 84 00 00 00 00
   0.190000 1      800             Rx   d 8 00 00 00 00 00 00 00 00
   0.200000 1      201             Rx   d 8 02 0E 24 41 00 3F 32 00
   0.210000 1      201             Rx   d 8 02 0E 38 41 00 42 2C 00
   0.210000 1      528             Rx   d 8 00 2C 00 35 00 36 00 52
   0.220000 1      201             Rx   d 8 02 0E 4C 41 00 45 29 00
   0.230000 1      201             Rx   d 8 02 0E 60 41 00 48 26 00
   0.230000 1      528             Rx   d 8 00 49 00 5D 00 33 00 65
   0.240000 1      201             Rx   d 8 02 0E 74 41 00 4B 30 00
   0.240000 1      648             Rx   d 8 10 4B 03 9D 00 00 00 00
   0.250000 1      201             Rx   d 8 02 0E 88 41 00 4E 2C 00
   0.250000 1      528             Rx   d 8 00 67 00 6E 00 4E 00 66
   0.260000 1      201             Rx   d 8 02 0E 9C 41 00 51 20 00
   0.270000 1      201             Rx   d 8 02 0E B0 41 00 54 31 00
   0.270000 1      528             Rx   d 8 00 34 00 4A 00 49 00 61
   0.280000 1      201             Rx   d 8 03 0E C4 41 00 57 30 00
   0.290000 1      201             Rx   d 8 03 0E D8 41 00 5A 2C 00
   0.290000 1      384             Rx   d 8 9F 0E 0A 13 C7 48 41 00
   0.290000 1      528             Rx   d 8 00 49 00 86 00 71 00 5D
   0.290000 1      648             Rx   d 8 10 4B 03 B6 00 00 00 00
   0.300000 1      201             Rx   d 8 03 0E EC 41 00 5D 30 00
   0.310000 1      201             Rx   d 8 03 0F 00 41 00 60 2D 00
   0.310000 1      528             Rx   d 8 00 2F 00 86 00 52 00 55
   0.320000 1      201             Rx   d 8 03 0F 14 41 00 63 2D 00
   0.330000 1      201             Rx   d 8 03 0F 28 41 00 66 32 00
   0.330000 1      528             Rx   d 8 00 6A 00 81 00 6B 00 4E
   0.340000 1      201             Rx   d 8 03 0F 3C 41 00 69 2B 00
   0.340000 1      648             Rx   d 8 10 4B 03 CF 00 00 00 00
   0.350000 1      201             Rx   d 8 03 0F 50 41 00 6C 25 00
   0.350000 1      528             Rx   d 8 00 99 00 44 00 80 00 71
   0.360000 1      201             Rx   d 8 04 0F 64 41 00 6F 2F 00
   0.370000 1      201             Rx   d 8 04 0F 78 41 00 72 28 00
   0.370000 1      528             Rx   d 8 00 A3 00 9A 00 79 00 72
   0.380000 1      201             Rx   d 8 04 0F 8C 41 00 75 25 00
   0.390000 1      201             Rx   d 8 04 0F A0 41 00 78 31 00
   0.390000 1      384             Rx   d 8 9F 0F 32 15 10 48 44 00
   0.390000 1      528             Rx   d 8 00 6B 00 9F 00 73 00 6E
   0.390000 1      648             Rx   d 8 10 4B 03 E8 00 00 00 00
   0.390000 1      800             Rx   d 8 00 00 00 00 00 00 00 00
   0.400000 1      201             Rx   d 8 04 0F B4 41 00 7B 2E 00
   0.410000 1      201             Rx   d 8 04 0F C8 41 00 7E 29 00
   0.410000 1      528             Rx   d 8 00 97 00 63 00 7F 00 87
   0.420000 1      201             Rx   d 8 05 0F DC 41 00 81 29 00
   0.430000 1      201             Rx   d 8 05 0F F0 41 00 84 2D 00
   0.430000 1      528             Rx   d 8 00 B4 00 77 00 80 00 7B
   0.440000 1      201             Rx   d 8 05 10 04 41 00 87 32 00
   0.440000 1      648             Rx   d 8 10 4B 04 01 00 00 00 00
   0.450000 1      201             Rx   d 8 05 10 18 41 00 8A 27 00
   0.450000 1      528             Rx   d 8 00 BA 00 B3 00 7F 00 9F
   0.460000 1      201             Rx   d 8 05 10 2C 41 00 8D 32 00
   0.470000 1      201             Rx   d 8 05 10 40 41 00 90 30 00
   0.470000 1      528             Rx   d 8 00 A6 00 8C 00 9B 00 A7
   0.480000 1      201             Rx   d 8 05 10 54 41 00 93 20 00
   0.490000 1      201             Rx   d 8 05 10 68 41 00 96 2B 00
   0.490000 1      384             Rx   d 8 9F 0E E1 13 34 49 3E 00
   0.490000 1      528             Rx   d 8 00 AB 00 C5 00 B3 00 79
   0.490000 1      648             Rx   d 8 10 4B 04 1A 00 00 00 00
   0.500000 1      201             Rx   d 8 05 10 7C 41 00 99 22 00
   0.510000 1      201             Rx   d 8 05 10 90 41 00 9C 1F 00
   0.510000 1      528             Rx   d 8 00 8F 00 7F 00 90 00 A8
   0.520000 1      201             Rx   d 8 05 10 A4 41 00 9F 2F 00
   0.530000 1      201             Rx   d 8 06 10 B8 41 00 A2 26 00
   0.530000 1      528             Rx   d 8 00 C2 00 BC 00 BE 00 BA
   0.540000 1      201             Rx   d 8 06 10 CC 41 00 A5 22 00
   0.540000 1      648             Rx   d 8 10 4B 04 33 00 00 00 00
   0.550000 1      201             Rx   d 8 06 10 E0 41 00 A8 2D 00
   0.550000 1      528             Rx   d 8 00 D5 00 CD 00 BE 00 B6
   0.560000 1      201             Rx   d 8 06 10 F4 41 00 AB 2C 00
   0.570000 1      201             Rx   d 8 06 11 08 41 00 AE 32 00
   0.570000 1      528             Rx   d 8 00 A8 00 91 00 BC 00 96
   0.580000 1      201             Rx   d 8 06 11 1C 41 00 B1 2B 00
   0.590000 1      201             Rx   d 8 06 11 30 41 00 B4 1F 00
   0.590000 1      384             Rx   d 8 9F 0D ED 14 82 42 44 00
   0.590000 1      528             Rx   d 8 00 89 00 B6 00 AD 00 A2
   0.590000 1      648             Rx   d 8 10 4B 04 4C 00 00 00 00
   0.590000 1      800             Rx   d 8 00 00 00 00 00 00 00 00
   0.600000 1      201             Rx   d 8 07 11 44 41 00 B7 25 00
   0.610000 1      201             Rx   d 8 07 11 58 41 00 BA 27 00
   0.610000 1      528             Rx   d 8 00 E6 00 C3 00 B1 00 C3
   0.620000 1      201             Rx   d 8 07 11 6C 41 00 BD 2D 00
   0.630000 1      201             Rx   d 8 07 11 80 41 00 C0 2D 00
   0.630000 1      528             Rx   d 8 00 DD 00 97 00 D8 00 C8
   0.640000 1      201             Rx   d 8 07 11 94 41 00 C3 28 00
   0.640000 1      648             Rx   d 8 10 4B 04 65 00 00 00 00
   0.650000 1      201             Rx   d 8 07 11 A8 41 00 C6 30 00
   0.650000 1      528             Rx   d 8 00 EB 00 D4 00 BE 00 E1
   0.660000 1      201             Rx   d 8 07 11 BC 41 00 C9 31 00
   0.670000 1      201             Rx   d 8 08 11 D0 41 00 CC 2D 00
   0.670000 1      528             Rx   d 8 00 B7 00 E6 00 B8 00 C0
   0.680000 1      201             Rx   d 8 08 11 E4 41 00 CF 1F 00
   0.690000 1      201             Rx   d 8 08 11 F8 41 00 D2 32 00
   0.690000 1      384             Rx   d 8 9F 0E 86 15 40 42 40 00
   0.690000 1      528             Rx   d 8 00 A9 00 BF 00 CE 00 E4
   0.690000 1      648             Rx   d 8 10 4B 04 7E 00 00 00 00
   0.700000 1      201             Rx   d 8 08 12 0C 41 00 D5 24 00
   0.710000 1      201             Rx   d 8 08 12 20 41 00 D8 27 00
   0.710000 1      528             Rx   d 8 00 EA 00 F4 00 EF 00 DB
   0.720000 1      201             Rx   d 8 08 12 34 41 00 DB 2A 00
   0.730000 1      201             Rx   d 8 08 12 48 41 00 DE 2E 00
   0.730000 1  ErrorFrame      E
   0.740000 1      201             Rx   d 8 08 12 5C 41 00 E1 1E 00
   0.740000 1      648             Rx   d 8 10 4B 04 97 00 00 00 00
   0.750000 1      201             Rx   d 8 08 12 70 41 00 E3 29 00
   0.750000 1      528             Rx   d 8 00 F4 00 B8 00 FF 00 DD
   0.760000 1      201             Rx   d 8 09 12 84 41 00 E6 27 00
   0.770000 1      201             Rx   d 8 09 12 98 41 00 E9 32 00
   0.770000 1      528             Rx   d 8 00 C9 01 03 00 D0 00 DE
   0.780000 1      201             Rx   d 8 09 12 AC 41 00 EC 32 00
   0.790000 1      201             Rx   d 8 09 12 C0 41 00 EF 26 00
   0.790000 1      384             Rx   d 8 9F 0E 48 13 3B 49 40 00
   0.790000 1      528             Rx   d 8 00 DD 00 C6 00 F0 00 E2
   0.790000 1      648             Rx   d 8 10 4B 04 B0 00 00 00 00
   0.790000 1      800             Rx   d 8 00 00 00 00 00 00 00 00
   0.800000 1      201             Rx   d 8 09 12 D4 41 00 F2 2E 00
   0.810000 1      201             Rx   d 8 09 12 E8 41 00 F5 31 00
   0.810000 1      528             Rx   d 8 01 13 00 F4 01 00 00 F8
   0.820000 1      201             Rx   d 8 09 12 FC 41 00 F8 2B 00
   0.830000 1      201             Rx   d 8 0A 13 10 41 00 FB 24 00
   0.830000 1      528             Rx   d 8 00 D2 00 F8 01 08 00 DF
   0.840000 1      201             Rx   d 8 0A 13 24 41 00 FE 22 00
   0.840000 1      648             Rx   d 8 10 4B 04 C9 00 00 00 00
   0.850000 1      201             Rx   d 8 0A 13 38 41 01 01 1F 00
   0.850000 1      528             Rx   d 8 00 E2 01 2D 01 07 01 09
   0.860000 1      201             Rx   d 8 0A 13 4C 41 01 04 27 00
   0.870000 1      201             Rx   d 8 0A 13 60 41 01 07 22 00
   0.870000 1      528             Rx   d 8 00 EF 00 EE 01 11 00 ED
   0.880000 1      201             Rx   d 8 0A 13 74 41 01 0A 2E 00
   0.890000 1      201             Rx   d 8 0A 13 88 41 01 0D 24 00
   0.890000 1      384             Rx   d 8 9F 0E 6F 14 C0 41 44 00
   0.890000 1      528             Rx   d 8 00 FC 01 3B 00 F5 01 0E
   0.890000 1      648             Rx   d 8 10 4B 04 E2 00 00 00 00
   0.900000 1      201             Rx   d 8 0A 13 9C 41 01 10 26 00
   0.910000 1      201             Rx   d 8 0B 13 B0 41 01 13 22 00
   0.910000 1      528             Rx   d 8 01 1E 00 EA 01 1C 01 0C
   0.920000 1      201             Rx   d 8 0B 13 C4 41 01 16 25 00
   0.930000 1      201             Rx   d 8 0B 13 D8 41 01 19 31 00
   0.930000 1      528             Rx   d 8 01 1A 01 26 01 37 01 18
   0.940000 1      201             Rx   d 8 0B 13 EC 41 01 1C 2F 00
   0.940000 1      648             Rx   d 8 10 4B 04 FB 00 00 00 00
   0.950000 1      201             Rx   d 8 0B 14 00 41 01 1F 2E 00
   0.950000 1      528             Rx   d 8 01 07 01 1A 01 37 01 32
   0.960000 1      201             Rx   d 8 0B 14 14 41 01 22 25 00
   0.970000 1      201             Rx   d 8 0C 14 28 41 01 25 32 00
   0.970000 1      528             Rx   d 8 01 45 01 47 01 13 01 2E
   0.980000 1      201             Rx   d 8 0C 14 3C 41 01 28 30 00
   0.990000 1      201             Rx   d 8 0C 14 50 41 01 2B 30 00
   0.990000 1      384             Rx   d 8 9F 0F 69 14 86 44 44 00
   0.990000 1      528             Rx   d 8 01 2B 01 44 01 44 01 13
   0.990000 1      648             Rx   d 8 10 4B 05 14 00 00 00 00
   0.990000 1      800             Rx   d 8 00 00 00 00 00 00 00 00
   1.000000 1      201             Rx   d 8 0C 14 64 41 01 2E 21 00
   1.010000 1      201             Rx   d 8 0C 14 78 41 01 31 24 00
   1.010000 1      528             Rx   d 8 01 63 01 1A 01 30 01 47
   1.020000 1      201             Rx   d 8 0C 14 8C 41 01 34 25 00
   1.030000 1      201             Rx   d 8 0C 14 A0 41 01 37 25 00
   1.030000 1      528             Rx   d 8 01 31 01 61 01 32 01 24
   1.040000 1      201             Rx   d 8 0D 14 B4 41 01 3A 30 00
   1.040000 1      648             Rx   d 8 10 4B 05 2D 00 00 00 00
   1.050000 1      201             Rx   d 8 0D 14 C8 41 01 3D 23 00
   1.050000 1      528             Rx   d 8 01 0E 01 59 01 20 01 2C
   1.060000 1      201             Rx   d 8 0D 14 DC 41 01 40 2A 00
   1.070000 1      201             Rx   d 8 0D 14 F0 41 01 43 29 00
   1.070000 1      528             Rx   d 8 01 33 01 67 01 2C 01 49
   1.080000 1      201             Rx   d 8 0D 15 04 41 01 46 30 00
   1.090000 1      201             Rx   d 8 0D 15 18 41 01 49 25 00
   1.090000 1      384             Rx   d 8 9F 0E 11 13 69 4A 3E 00
   1.090000 1      528             Rx   d 8 01 45 01 5C 01 30 01 56
   1.090000 1      648             Rx   d 8 10 4B 05 46 00 00 00 00
   1.100000 1      201             Rx   d 8 0D 15 2C 41 01 4C 2F 00
   1.110000 1      201             Rx   d 8 0D 15 40 41 01 4F 31 00
   1.110000 1      528             Rx   d 8 01 2E 01 65 01 48 01 5E
   1.120000 1      201             Rx   d 8 0D 15 54 41 01 52 23 00
   1.130000 1      201             Rx   d 8 0E 15 68 41 01 55 26 00
   1.130000 1      528             Rx   d 8 01 4E 01 78 01 72 01 38
   1.140000 1      201             Rx   d 8 0E 15 7C 41 01 58 30 00
   1.140000 1      648             Rx   d 8 10 4B 05 5F 00 00 00 00
   1.150000 1      201             Rx   d 8 0E 15 90 41 01 5B 30 00
   1.150000 1      528             Rx   d 8 01 80 01 41 01 4B 01 69
   1.160000 1      201             Rx   d 8 0E 15 A4 41 01 5E 23 00
   1.170000 1  ErrorFrame      E
   1.170000 1      528             Rx   d 8 01 4F 01 71 01 64 01 56
   1.180000 1      201             Rx   d 8 0F 15 CC 41 01 64 30 00
   1.190000 1      201             Rx   d 8 0F 15 E0 41 01 67 28 00
   1.190000 1      384             Rx   d 8 9F 0F 44 15 54 47 43 00
   1.190000 1      528             Rx   d 8 01 8E 01 72 01 6E 01 73
   1.190000 1      648             Rx   d 8 10 4B 05 78 00 00 00 00
   1.190000 1      800             Rx   d 8 00 00 00 00 00 00 00 00
   1.200000 1      201             Rx   d 8 0F 15 F4 41 01 6A 2C 00
   1.210000 1      201             Rx   d 8 0F 16 08 41 01 6D 21 00
   1.210000 1      528             Rx   d 8 01 9D 01 57 01 69 01 88
   1.220000 1      201             Rx   d 8 0F 16 1C 41 01 70 26 00
   1.230000 1      201             Rx   d 8 0F 16 30 41 01 73 32 00
   1.230000 1      528             Rx   d 8 01 63 01 7F 01 63 01 6C
   1.240000 1      201             Rx   d 8 0F 16 44 41 01 76 21 00
   1.240000 1      648             Rx   d 8 10 4B 05 91 00 00 00 00
   1.250000 1      201             Rx   d 8 0F 16 58 41 01 79 30 00
   1.250000 1      528             Rx   d 8 01 6B 01 A5 01 85 01 75
   1.260000 1      201             Rx   d 8 10 16 6C 41 01 7C 2C 00
   1.270000 1      201             Rx   d 8 10 16 80 41 01 7F 25 00
   1.270000 1      528             Rx   d 8 01 64 01 84 01 98 01 76
   1.280000 1      201             Rx   d 8 10 16 94 41 01 82 1E 00
   1.290000 1      201             Rx   d 8 10 16 A8 41 01 85 32 00
   1.290000 1      384             Rx   d 8 9F 0E 40 14 9B 47 45 00
   1.290000 1      528             Rx   d 8 01 AC 01 9E 01 6A 01 68
   1.290000 1      648             Rx   d 8 10 4B 05 AA 00 00 00 00
   1.300000 1      201             Rx   d 8 10 16 BC 41 01 88 21 00
   1.310000 1      201             Rx   d 8 10 16 D0 41 01 8B 2B 00
   1.310000 1      528             Rx   d 8 01 5E 01 5B 01 91 01 9B
   1.320000 1      201             Rx   d 8 10 16 E4 41 01 8E 24 00
   1.330000 1      201             Rx   d 8 10 16 F8 41 01 91 32 00
   1.330000 1      528             Rx   d 8 01 62 01 BE 01 8E 01 99
   1.340000 1      201             Rx   d 8 10 17 0C 41 01 94 1E 00
   1.340000 1      648             Rx   d 8 10 4B 05 C3 00 00 00 00
   1.350000 1      201             Rx   d 8 10 17 20 41 01 97 24 00
   1.350000 1      528             Rx   d 8 01 9F 01 9E 01 84 01 B4
   1.360000 1      201             Rx   d 8 11 17 34 41 01 9A 25 00
   1.370000 1      201             Rx   d 8 11 17 48 41 01 9D 21 00
   1.370000 1      528             Rx   d 8 01 71 01 B2 01 B0 01 A2
   1.380000 1      201             Rx   d 8 11 17 5C 41 01 A0 30 00
   1.390000 1      201             Rx   d 8 11 17 70 41 01 A3 24 00
   1.390000 1      384             Rx   d 8 9F 0E 1A 14 04 42 42 00
   1.390000 1      528             Rx   d 8 01 72 01 96 01 99 01 A9
   1.390000 1      648             Rx   d 8 10 4B 05 DC 00 00 00 00
   1.390000 1      800             Rx   d 8 00 00 00 00 00 00 00 00
   1.400000 1      201             Rx   d 8 11 17 84 41 01 A6 2F 00
   1.410000 1      201             Rx   d 8 11 17 98 41 01 A9 31 00
   1.410000 1      528             Rx   d 8 01 B3 01 D5 01 A2 01 B9
   1.420000 1      201             Rx   d 8 11 17 AC 41 01 AC 29 00
   1.430000 1      201             Rx   d 8 11 17 C0 41 01 AF 31 00
   1.430000 1      528             Rx   d 8 01 9F 01 D4 01 A5 01 94
   1.440000 1      201             Rx   d 8 12 17 D4 41 01 B2 30 00
   1.440000 1      648             Rx   d 8 10 4B 05 F5 00 00 00 00
   1.450000 1      201             Rx   d 8 12 17 E8 41 01 B5 22 00
   1.450000 1      528             Rx   d 8 01 DA 01 AA 01 9B 01 A3
   1.460000 1      201             Rx   d 8 12 17 FC 41 01 B8 22 00
   1.470000 1      201             Rx   d 8 12 18 10 41 01 BB 27 00
   1.470000 1      528             Rx   d 8 01 B4 01 8D 01 AC 01 B7
   1.480000 1      201             Rx   d 8 12 18 24 41 01 BE 27 00
   1.490000 1      201             Rx   d 8 12 18 38 41 01 C1 20 00
   1.490000 1      384             Rx   d 8 9F 0E A9 13 98 4A 45 00
   1.490000 1      528             Rx   d 8 01 C5 01 A6 01 D8 01 AA
   1.490000 1      648             Rx   d 8 10 4B 06 0E 00 00 00 00
   1.500000 1      201             Rx   d 8 12 18 4C 41 01 C4 27 00
   1.510000 1      201             Rx   d 8 12 18 60 41 01 C7 31 00
   1.510000 1      528             Rx   d 8 01 E3 01 A6 01 AB 01 AC
   1.520000 1      201             Rx   d 8 13 18 74 41 01 CA 27 00
   1.530000 1      201             Rx   d 8 13 18 88 41 01 CD 24 00
   1.530000 1      528             Rx   d 8 01 CA 01 CC 01 CA 01 D1
   1.540000 1      201             Rx   d 8 13 18 9C 41 01 D0 1E 00
   1.540000 1      648             Rx   d 8 10 4B 06 27 00 00 00 00
   1.550000 1      201             Rx   d 8 13 18 B0 41 01 D3 2A 00
   1.550000 1      528             Rx   d 8 01 BD 01 A9 01 E4 01 E6
   1.560000 1      201             Rx   d 8 13 18 C4 41 01 D6 22 00
   1.570000 1      201             Rx   d 8 13 18 D8 41 01 D9 1F 00
   1.570000 1      528             Rx   d 8 01 F4 01 E3 01 C5 01 DE
   1.580000 1      201             Rx   d 8 13 18 EC 41 01 DC 1E 00
   1.590000 1      201             Rx   d 8 14 19 00 41 01 DF 2A 00
   1.590000 1      384             Rx   d 8 9F 0E 26 13 B0 49 42 00
   1.590000 1      528             Rx   d 8 01 D6 01 FD 01 D8 01 D8
   1.590000 1      648             Rx   d 8 10 4B 06 40 00 00 00 00
   1.590000 1      800             Rx   d 8 00 00 00 00 00 00 00 00
   1.600000 1      201             Rx   d 8 14 19 14 41 01 E2 27 00
   1.610000 1      201             Rx   d 8 14 19 28 41 01 E5 2D 00
   1.610000 1      528             Rx   d 8 01 C6 01 E4 01 E3 01 F5
   1.620000 1      201             Rx   d 8 14 19 3C 41 01 E8 25 00
   1.630000 1      201             Rx   d 8 14 19 50 41 01 EB 31 00
   1.630000 1      528             Rx   d 8 01 FD 01 FB 01 DD 01 E8
   1.640000 1      201             Rx   d 8 14 19 64 41 01 EE 27 00
   1.640000 1      648             Rx   d 8 10 4B 06 59 00 00 00 00
   1.650000 1      201             Rx   d 8 14 19 78 41 01 F1 20 00
   1.650000 1      528             Rx   d 8 01 CE 01 EA 01 E5 01 DA
   1.660000 1      201             Rx   d 8 14 19 8C 41 01 F4 2A 00
   1.670000 1      201             Rx   d 8 14 19 A0 41 01 F7 2B 00
   1.670000 1      528             Rx   d 8 02 21 01 E6 01 EF 01 F2
   1.680000 1      201             Rx   d 8 14 19 B4 41 01 FA 26 00
   1.690000 1      201             Rx   d 8 14 19 C8 41 01 FD 2C 00
   1.690000 1      384             Rx   d 8 9F 0E B8 14 4B 46 45 00
   1.690000 1      528             Rx   d 8 01 EC 02 11 02 11 01 E5
   1.690000 1      648             Rx   d 8 10 4B 06 72 00 00 00 00
   1.700000 1      201             Rx   d 8 15 19 DC 41 02 00 25 00
   1.710000 1      201             Rx   d 8 15 19 F0 41 02 03 32 00
   1.710000 1      528             Rx   d 8 02 25 01 F0 02 21 01 F2
   1.720000 1      201             Rx   d 8 15 1A 04 41 02 06 32 00
   1.730000 1      201             Rx   d 8 15 1A 18 41 02 09 1E 00
   1.730000 1      528             Rx   d 8 02 37 02 20 01 F1 02 04
   1.740000 1      201             Rx   d 8 15 1A 2C 41 02 0C 2A 00
   1.740000 1      648             Rx   d 8 10 4B 06 8B 00 00 00 00
   1.750000 1      201             Rx   d 8 15 1A 40 41 02 0F 1E 00
   1.750000 1      528             Rx   d 8 01 F8 02 2D 02 24 01 F6
   1.760000 1      201             Rx   d 8 15 1A 54 41 02 13 23 00
   1.770000 1      201             Rx   d 8 15 1A 68 41 02 16 29 00
   1.770000 1      528             Rx   d 8 02 42 01 FE 02 23 02 26
   1.780000 1      201             Rx   d 8 16 1A 7C 41 02 19 2C 00
   1.790000 1      201             Rx   d 8 16 1A 90 41 02 1C 2A 00
   1.790000 1      384             Rx   d 8 9F 0D EA 14 52 44 44 00
   1.790000 1      528             Rx   d 8 01 F7 02 47 02 2C 02 29
   1.790000 1      648             Rx   d 8 10 4B 06 A4 00 00 00 00
   1.790000 1      800             Rx   d 8 00 00 00 00 00 00 00 00
   1.800000 1      201             Rx   d 8 16 1A A4 41 02 1F 25 00
   1.810000 1      201             Rx   d 8 16 1A B8 41 02 22 21 00
   1.810000 1      528             Rx   d 8 02 05 02 4E 02 0B 02 34
   1.820000 1      201             Rx   d 8 16 1A CC 41 02 25 27 00
   1.830000 1      201             Rx   d 8 16 1A E0 41 02 28 1E 00
   1.830000 1      528             Rx   d 8 01 F6 02 18 02 2E 02 2C
   1.840000 1      201             Rx   d 8 16 1A F4 41 02 2B 30 00
   1.840000 1      648             Rx   d 8 10 4B 06 BD 00 00 00 00
   1.850000 1      201             Rx   d 8 17 1B 08 41 02 2E 21 00
   1.850000 1      528             Rx   d 8 02 07 02 39 02 21 02 1D
   1.860000 1      201             Rx   d 8 17 1B 1C 41 02 31 30 00
   1.870000 1      201             Rx   d 8 17 1B 30 41 02 34 25 00
   1.870000 1      528             Rx   d 8 02 3A 02 09 02 50 02 46
   1.880000 1      201             Rx   d 8 17 1B 44 41 02 37 21 00
   1.890000 1      201             Rx   d 8 17 1B 58 41 02 3A 27 00
   1.890000 1      384             Rx   d 8 9F 0D FD 13 E7 45 45 00
   1.890000 1      528             Rx   d 8 02 26 02 59 02 56 02 3F
   1.890000 1      648             Rx   d 8 10 4B 06 D6 00 00 00 00
   1.900000 1      201             Rx   d 8 17 1B 6C 41 02 3D 24 00
   1.910000 1      201             Rx   d 8 17 1B 80 41 02 40 23 00
   1.910000 1      528             Rx   d 8 02 13 02 61 02 4F 02 40
   1.920000 1      201             Rx   d 8 17 1B 94 41 02 43 1E 00
   1.930000 1      201             Rx   d 8 17 1B A8 41 02 46 29 00
   1.930000 1      528             Rx   d 8 02 23 02 55 02 50 02 5F
   1.940000 1      201             Rx   d 8 17 1B BC 41 02 49 2B 00
   1.940000 1      648             Rx   d 8 10 4B 06 EF 00 00 00 00
   1.950000 1      201             Rx   d 8 18 1B D0 41 02 4C 25 00
   1.950000 1      528             Rx   d 8 02 1D 02 71 02 4A 02 3A
   1.960000 1      201             Rx   d 8 18 1B E4 41 02 4F 2F 00
   1.970000 1      201             Rx   d 8 18 1B F8 41 02 52 2F 00
   1.970000 1      528             Rx   d 8 02 45 02 50 02 46 02 5A
   1.980000 1      201             Rx   d 8 18 1C 0C 41 02 55 26 00
   1.990000 1      201             Rx   d 8 18 1C 20 41 02 58 2D 00
   1.990000 1      384             Rx   d 8 9F 0E 81 13 B4 48 3F 00
   1.990000 1      528             Rx   d 8 02 88 02 2D 02 66 02 66
   1.990000 1      648             Rx   d 8 10 4B 07 08 00 00 00 00
   1.990000 1      800             Rx   d 8 00 00 00 00 00 00 00 00
   2.000000 1      201             Rx   d 8 18 1C 34 42 02 5B 21 00
   2.010000 1      201             Rx   d 8 19 1C 48 42 02 5E 2F 00
   2.010000 1      528             Rx   d 8 02 8B 02 7C 02 5A 02 57
   2.020000 1      201             Rx   d 8 19 1C 5C 42 02 61 1E 00
   2.030000 1      201             Rx   d 8 19 1C 70 42 02 64 22 00
   2.030000 1      528             Rx   d 8 02 87 02 70 02 6E 02 6E
   2.040000 1      201             Rx   d 8 19 1C 84 42 02 67 24 00
   2.040000 1      648             Rx   d 8 10 4C 07 21 00 00 00 00
   2.050000 1      201             Rx   d 8 19 1C 98 42 02 6A 2D 00
   2.050000 1      528             Rx   d 8 02 8A 02 54 02 62 02 77
   2.060000 1      201             Rx   d 8 19 1C AC 42 02 6D 28 00
   2.070000 1      201             Rx   d 8 19 1C C0 42 02 70 1E 00
   2.070000 1      528             Rx   d 8 02 4F 02 7F 02 79 02 7B
   2.080000 1      201             Rx   d 8 19 1C D4 42 02 73 20 00
   2.090000 1      201             Rx   d 8 1A 1C E8 42 02 76 31 00
   2.090000 1      384             Rx   d 8 9F 0E 37 13 29 45 3E 00
   2.090000 1      528             Rx   d 8 02 62 02 94 02 5A 02 59
   2.090000 1      648             Rx   d 8 10 4C 07 3A 00 00 00 00
   2.100000 1      201             Rx   d 8 1A 1C FC 42 02 79 22 00
   2.110000 1      201             Rx   d 8 1A 1D 10 42 02 7C 30 00
   2.110000 1      528             Rx   d 8 02 67 02 6E 02 7C 02 95
   2.120000 1      201             Rx   d 8 1A 1D 24 42 02 7F 22 00
   2.130000 1      201             Rx   d 8 1A 1D 38 42 02 82 1F 00
   2.130000 1      528             Rx   d 8 02 5E 02 91 02 67 02 8A
   2.140000 1      201             Rx   d 8 1A 1D 4C 42 02 85 30 00
   2.140000 1      648             Rx   d 8 10 4C 07 53 00 00 00 00
   2.150000 1      201             Rx   d 8 1A 1D 60 42 02 88 2D 00
   2.150000 1      528             Rx   d 8 02 81 02 5E 02 A3 02 75
   2.160000 1      201             Rx   d 8 1A 1D 74 42 02 8B 21 00
   2.170000 1      201             Rx   d 8 1A 1D 88 42 02 8E 2F 00
   2.170000 1      528             Rx   d 8 02 B6 02 BC 02 73 02 A7
   2.180000 1      201             Rx   d 8 1A 1D 9C 42 02 91 22 00
   2.190000 1      201             Rx   d 8 1A 1D B0 42 02 94 2B 00
   2.190000 1      384             Rx   d 8 9F 0F 0E 14 3A 48 43 00
   2.190000 1      528             Rx   d 8 02 BB 02 BB 02 A5 02 89
   2.190000 1      648             Rx   d 8 10 4C 07 6C 00 00 00 00
   2.190000 1      800             Rx   d 8 00 40 00 00 00 00 00 00
   2.200000 1      201             Rx   d 8 1B 1D C4 42 02 97 1E 00
   2.210000 1      201             Rx   d 8 1B 1D D8 42 02 9A 31 00
   2.210000 1      528             Rx   d 8 02 6C 02 B0 02 8A 02 7F
   2.220000 1      201             Rx   d 8 1B 1D EC 42 02 9D 2C 00
   2.230000 1      201             Rx   d 8 1B 1E 00 42 02 A0 31 00
   2.230000 1      528             Rx   d 8 02 C5 02 78 02 82 02 93
   2.240000 1      201             Rx   d 8 1B 1E 14 42 02 A3 2B 00
   2.240000 1      648             Rx   d 8 10 4C 07 85 00 00 00 00
   2.250000 1      201             Rx   d 8 1B 1E 28 42 02 A6 2E 00
   2.250000 1      528             Rx   d 8 02 84 02 9B 02 BC 02 B9
   2.260000 1      201             Rx   d 8 1C 1E 3C 42 02 A9 23 00
   2.270000 1      201             Rx   d 8 1C 1E 50 42 02 AC 1E 00
   2.270000 1      528             Rx   d 8 02 9B 02 82 02 93 02 8F
   2.280000 1      201             Rx   d 8 1C 1E 64 42 02 AF 20 00
   2.290000 1      201             Rx   d 8 1C 1E 78 42 02 B2 1E 00
   2.290000 1      384             Rx   d 8 9F 0F 28 14 93 47 3F 00
   2.290000 1      528             Rx   d 8 02 A0 02 88 02 A8 02 B5
   2.290000 1      648             Rx   d 8 10 4C 07 9E 00 00 00 00
   2.300000 1      201             Rx   d 8 1C 1E 8C 42 02 B5 26 00
   2.310000 1      201             Rx   d 8 1C 1E A0 42 02 B8 27 00
   2.310000 1      528             Rx   d 8 02 9D 02 8F 02 BB 02 9E
   2.320000 1      201             Rx   d 8 1C 1E B4 42 02 BB 2B 00
   2.330000 1      201             Rx   d 8 1C 1E C8 42 02 BE 31 00
   2.330000 1      528             Rx   d 8 02 BD 02 B2 02 A8 02 AF
   2.340000 1      201             Rx   d 8 1D 1E DC 42 02 C1 31 00
   2.340000 1      648             Rx   d 8 10 4C 07 B7 00 00 00 00
   2.350000 1      201             Rx   d 8 1D 1E F0 42 02 C4 2D 00
   2.350000 1      528             Rx   d 8 02 BE 02 B8 02 AD 02 C4
   2.360000 1      201             Rx   d 8 1D 1F 04 42 02 C7 2E 00
   2.370000 1      201             Rx   d 8 1D 1F 18 42 02 CA 29 00
   2.370000 1      528             Rx   d 8 02 AA 02 E6 02 C4 02 DD
   2.380000 1      201             Rx   d 8 1D 1F 2C 42 02 CD 27 00
   2.390000 1      201             Rx   d 8 1D 1F 40 42 02 D0 2D 00
   2.390000 1      384             Rx   d 8 9F 0E 1D 13 90 49 44 00
   2.390000 1      528             Rx   d 8 02 EA 02 AD 02 EA 02 D8
   2.390000 1      648             Rx   d 8 10 4C 07 D0 00 00 00 00
   2.390000 1      800             Rx   d 8 00 40 00 00 00 00 00 00
   2.400000 1      201             Rx   d 8 1E 1F 54 42 02 D3 2B 00
   2.410000 1      201             Rx   d 8 1E 1F 68 42 02 D6 31 00
   2.410000 1      528             Rx   d 8 02 CC 02 D8 02 BD 02 CE
   2.420000 1      201             Rx   d 8 1E 1F 7C 42 02 D9 22 00
   2.430000 1      201             Rx   d 8 1E 1F 90 42 02 DC 22 00
   2.430000 1      528             Rx   d 8 02 CF 03 05 02 D8 02 CB
   2.440000 1      201             Rx   d 8 1E 1F A4 42 02 DF 1F 00
   2.440000 1      648             Rx   d 8 10 4C 07 E9 00 00 00 00
   2.450000 1      201             Rx   d 8 1F 1F B8 42 02 E2 25 00
   2.450000 1      528             Rx   d 8 02 C7 02 CE 02 FA 02 FE
   2.460000 1      201             Rx   d 8 1F 1F CC 42 02 E5 21 00
   2.470000 1      201             Rx   d 8 1F 1F E0 42 02 E8 27 00
   2.470000 1      528             Rx   d 8 02 F9 03 04 02 DC 02 EB
   2.480000 1      201             Rx   d 8 1F 1F F4 42 02 EB 26 00
   2.490000 1      201             Rx   d 8 1F 20 08 42 02 EE 23 00
   2.490000 1      384             Rx   d 8 9F 0E B2 15 04 48 44 00
   2.490000 1      528             Rx   d 8 03 1C 02 FE 02 E3 02 DF
   2.490000 1      648             Rx   d 8 10 4C 08 02 00 00 00 00
   2.500000 1      201             Rx   d 8 1F 20 1C 42 02 F1 1F 00
   2.510000 1      201             Rx   d 8 1F 20 30 42 02 F4 2A 00
   2.510000 1      528             Rx   d 8 03 10 02 DB 03 0F 02 E4
   2.520000 1      201             Rx   d 8 1F 20 44 42 02 F7 26 00
   2.530000 1      201             Rx   d 8 1F 20 58 42 02 FA 21 00
   2.530000 1      528             Rx   d 8 02 F2 03 23 02 E3 02 DD
   2.540000 1      201             Rx   d 8 1F 20 6C 42 02 FD 20 00
   2.540000 1      648             Rx   d 8 10 4C 08 1B 00 00 00 00
   2.550000 1      201             Rx   d 8 1F 20 80 42 03 00 2B 00
   2.550000 1      528             Rx   d 8 03 31 02 E8 03 04 02 F3
   2.560000 1      201             Rx   d 8 1F 20 94 42 03 03 2B 00
   2.570000 1      201             Rx   d 8 20 20 A8 42 03 06 20 00
   2.570000 1      528             Rx   d 8 03 13 03 1A 02 F8 02 FD
   2.580000 1      201             Rx   d 8 20 20 BC 42 03 09 21 00
   2.590000 1      201             Rx   d 8 20 20 D0 42 03 0C 1E 00
   2.590000 1      384             Rx   d 8 9F 0F 4D 13 F3 47 45 00
   2.590000 1      528             Rx   d 8 02 E0 02 F4 03 1C 03 1D
   2.590000 1      648             Rx   d 8 10 4C 08 34 00 00 00 00
   2.590000 1      800             Rx   d 8 00 40 00 00 00 00 00 00
   2.600000 1      201             Rx   d 8 20 20 E4 42 03 0F 29 00
   2.610000 1      201             Rx   d 8 20 20 F8 42 03 12 2D 00
   2.610000 1      528             Rx   d 8 03 30 03 15 03 1B 02 FB
   2.620000 1      201             Rx   d 8 20 21 0C 42 03 15 2C 00
   2.630000 1      201             Rx   d 8 20 21 20 42 03 18 2A 00
   2.630000 1      528             Rx   d 8 03 38 03 3F 03 14 03 33
   2.640000 1      201             Rx   d 8 20 21 34 42 03 1B 2D 00
   2.640000 1      648             Rx   d 8 10 4C 08 4D 00 00 00 00
   2.650000 1      201             Rx   d 8 20 21 48 42 03 1E 26 00
   2.650000 1      528             Rx   d 8 02 FD 03 11 03 0C 03 18
   2.660000 1      201             Rx   d 8 20 21 5C 42 03 21 22 00
   2.670000 1      201             Rx   d 8 20 21 70 42 03 24 2E 00
   2.670000 1      528             Rx   d 8 03 24 03 27 03 37 03 35
   2.680000 1      201             Rx   d 8 21 21 84 42 03 27 25 00
   2.690000 1      201             Rx   d 8 21 21 98 42 03 2A 23 00
   2.690000 1      384             Rx   d 8 9F 0F 7E 14 C7 45 43 00
   2.690000 1      528             Rx   d 8 03 46 03 44 03 0C 03 2D
   2.690000 1      648             Rx   d 8 10 4C 08 66 00 00 00 00
   2.700000 1      201             Rx   d 8 21 21 AC 42 03 2D 25 00
   2.710000 1      201             Rx   d 8 21 21 C0 42 03 30 31 00
   2.710000 1      528             Rx   d 8 03 13 03 02 03 36 03 24
   2.720000 1      201             Rx   d 8 21 21 D4 42 03 33 31 00
   2.730000 1      201             Rx   d 8 21 21 E8 42 03 36 22 00
   2.730000 1      528             Rx   d 8 03 14 03 48 03 30 03 40
   2.740000 1      201             Rx   d 8 21 21 FC 42 03 39 2B 00
   2.740000 1      648             Rx   d 8 10 4C 08 7F 00 00 00 00
   2.750000 1      201             Rx   d 8 22 22 10 42 03 3C 28 00
   2.750000 1      528             Rx   d 8 03 63 03 36 03 34 03 30
   2.760000 1      201             Rx   d 8 22 22 24 42 03 3F 23 00
   2.770000 1      201             Rx   d 8 22 22 38 42 03 42 30 00
   2.770000 1      528             Rx   d 8 03 54 03 5C 03 3D 03 3F
   2.780000 1      201             Rx   d 8 22 22 4C 42 03 45 24 00
   2.790000 1      201             Rx   d 8 22 22 60 42 03 48 26 00
   2.790000 1      384             Rx   d 8 9F 0E 2E 13 96 42 41 00
   2.790000 1      528             Rx   d 8 03 46 03 40 03 38 03 5E
   2.790000 1      648             Rx   d 8 10 4C 08 98 00 00 00 00
   2.790000 1      800             Rx   d 8 00 40 00 00 00 00 00 00
   2.800000 1      201             Rx   d 8 23 22 74 42 03 4B 2E 00
   2.810000 1      201             Rx   d 8 23 22 88 42 03 4E 28 00
   2.810000 1      528             Rx   d 8 03 42 03 4B 03 57 03 5B
   2.820000 1      201             Rx   d 8 23 22 9C 42 03 51 22 00
   2.830000 1      201             Rx   d 8 23 22 B0 42 03 54 1F 00
   2.830000 1      528             Rx   d 8 03 4A 03 85 03 56 03 63
   2.840000 1      201             Rx   d 8 23 22 C4 42 03 57 30 00
   2.840000 1      648             Rx   d 8 10 4C 08 B1 00 00 00 00
   2.850000 1      201             Rx   d 8 23 22 D8 42 03 5A 2C 00
   2.850000 1      528             Rx   d 8 03 2B 03 3F 03 44 03 5E
   2.860000 1      201             Rx   d 8 23 22 EC 42 03 5D 31 00
   2.870000 1      201             Rx   d 8 24 23 00 42 03 60 32 00
   2.870000 1      528             Rx   d 8 03 30 03 3D 03 4D 03 4D
   2.880000 1      201             Rx   d 8 24 23 14 42 03 63 23 00
   2.890000 1      201             Rx   d 8 24 23 28 42 03 66 32 00
   2.890000 1      384             Rx   d 8 9F 0E D9 15 3E 47 3E 00
   2.890000 1      528             Rx   d 8 03 8D 03 44 03 5D 03 50
   2.890000 1      648             Rx   d 8 10 4C 08 CA 00 00 00 00
   2.900000 1      201             Rx   d 8 24 23 3C 42 03 69 1E 00
   2.910000 1      201             Rx   d 8 24 23 50 42 03 6C 2E 00
   2.910000 1      528             Rx   d 8 03 8D 03 80 03 57 03 69
   2.920000 1      201             Rx   d 8 24 23 64 42 03 6F 25 00
   2.930000 1      201             Rx   d 8 24 23 78 42 03 72 21 00
   2.930000 1      528             Rx   d 8 03 58 03 74 03 74 03 54
   2.940000 1      201             Rx   d 8 25 23 8C 42 03 75 1E 00
   2.940000 1      648             Rx   d 8 10 4C 08 E3 00 00 00 00
   2.950000 1      201             Rx   d 8 25 23 A0 42 03 78 22 00
   2.950000 1      528             Rx   d 8 03 99 03 7A 03 79 03 91
   2.960000 1      201             Rx   d 8 25 23 B4 42 03 7B 1F 00
   2.970000 1      201             Rx   d 8 25 23 C8 42 03 7E 2F 00
   2.970000 1      528             Rx   d 8 03 6C 03 8E 03 7D 03 81
   2.980000 1      201             Rx   d 8 25 23 DC 42 03 81 24 00
   2.990000 1      201             Rx   d 8 25 23 F0 42 03 84 31 00
   2.990000 1      384             Rx   d 8 9F 0F 99 14 FA 44 3E 00
   2.990000 1      528             Rx   d 8 03 5B 03 69 03 78 03 83
   2.990000 1      648             Rx   d 8 10 4C 08 FC 00 00 00 00
   2.990000 1      800             Rx   d 8 00 40 00 00 00 00 00 00
   3.000000 1      201             Rx   d 8 25 24 04 42 03 86 22 00
   3.010000 1      201             Rx   d 8 25 24 18 42 03 89 32 00
   3.010000 1      528             Rx   d 8 03 75 03 7C 03 70 03 70
   3.020000 1      201             Rx   d 8 25 24 2C 42 03 8C 22 00
   3.030000 1      201             Rx   d 8 25 24 40 42 03 8F 2C 00
   3.030000 1      528             Rx   d 8 03 73 03 BD 03 8F 03 99
   3.040000 1      201             Rx   d 8 26 24 54 42 03 92 29 00
   3.040000 1      648             Rx   d 8 10 4C 09 15 00 00 00 00
   3.050000 1      201             Rx   d 8 26 24 68 42 03 95 32 00
   3.050000 1      528             Rx   d 8 03 A6 03 82 03 AA 03 A5
   3.060000 1      201             Rx   d 8 26 24 7C 42 03 98 21 00
   3.070000 1      201             Rx   d 8 26 24 90 42 03 9B 2A 00
   3.070000 1      528             Rx   d 8 03 C6 03 82 03 97 03 98
   3.080000 1      201             Rx   d 8 26 24 A4 42 03 9E 22 00
   3.090000 1      201             Rx   d 8 26 24 B8 42 03 A1 27 00
   3.090000 1      384             Rx   d 8 9F 0F 1D 14 59 48 45 00
   3.090000 1      528             Rx   d 8 03 77 03 C2 03 BE 03 BF
   3.090000 1      648             Rx   d 8 10 4C 09 2E 00 00 00 00
   3.100000 1      201             Rx   d 8 26 24 CC 42 03 A4 29 00
   3.110000 1      201             Rx   d 8 27 24 E0 42 03 A7 22 00
   3.110000 1      528             Rx   d 8 03 A3 03 D6 03 93 03 9D
   3.120000 1      201             Rx   d 8 27 24 F4 42 03 AA 2A 00
   3.130000 1      201             Rx   d 8 27 25 08 42 03 AD 24 00
   3.130000 1      528             Rx   d 8 03 DA 03 D6 03 C9 03 A5
   3.140000 1      201             Rx   d 8 27 25 1C 42 03 B0 31 00
   3.140000 1      648             Rx   d 8 10 4C 09 47 00 00 00 00
   3.150000 1      201             Rx   d 8 27 25 30 42 03 B3 28 00
   3.150000 1      528             Rx   d 8 03 86 03 84 03 BE 03 AB
   3.160000 1      201             Rx   d 8 27 25 44 42 03 B6 22 00
   3.170000 1      201             Rx   d 8 27 25 58 42 03 B9 21 00
   3.170000 1      528             Rx   d 8 03 B3 03 DE 03 B1 03 CB
   3.180000 1      201             Rx   d 8 27 25 6C 42 03 BC 2B 00
   3.190000 1      201             Rx   d 8 27 25 80 42 03 BF 29 00
   3.190000 1      384             Rx   d 8 9F 0E 98 14 87 42 42 00
   3.190000 1      528             Rx   d 8 03 DF 03 BE 03 D9 03 B0
   3.190000 1      648             Rx   d 8 10 4C 09 60 00 00 00 00
   3.190000 1      800             Rx   d 8 00 40 00 00 00 00 00 00
   3.200000 1      201             Rx   d 8 28 25 94 42 03 C2 2F 00
   3.210000 1      201             Rx   d 8 28 25 A8 42 03 C5 29 00
   3.210000 1      528             Rx   d 8 03 D2 03 A3 03 CE 03 BA
   3.220000 1      201             Rx   d 8 28 25 BC 42 03 C8 24 00
   3.230000 1      201             Rx   d 8 28 25 D0 42 03 CB 29 00
   3.230000 1      528             Rx   d 8 03 CE 03 B0 03 E0 03 E4
   3.240000 1      201             Rx   d 8 28 25 E4 42 03 CE 2D 00
   3.240000 1      648             Rx   d 8 10 4C 09 79 00 00 00 00
   3.250000 1      201             Rx   d 8 28 25 F8 42 03 D1 26 00
   3.250000 1      528             Rx   d 8 03 E8 03 C3 03 DB 03 CD
   3.260000 1      201             Rx   d 8 28 26 0C 42 03 D4 32 00
   3.270000 1      201             Rx   d 8 29 26 20 42 03 D7 27 00
   3.270000 1      528             Rx   d 8 03 D1 03 BE 03 DA 03 ED
   3.280000 1      201             Rx   d 8 29 26 34 42 03 DA 1E 00
   3.290000 1      201             Rx   d 8 29 26 48 42 03 DD 1F 00
   3.290000 1      384             Rx   d 8 9F 0E 06 13 D6 46 45 00
   3.290000 1      528             Rx   d 8 03 C2 03 F1 03 C6 03 C0
   3.290000 1      648             Rx   d 8 10 4C 09 92 00 00 00 00
   3.300000 1      201             Rx   d 8 29 26 5C 42 03 E0 21 00
   3.310000 1      201             Rx   d 8 29 26 70 42 03 E3 31 00
   3.310000 1      528             Rx   d 8 04 05 04 14 03 E5 03 F6
   3.320000 1      201             Rx   d 8 29 26 84 42 03 E6 26 00
   3.330000 1      201             Rx   d 8 29 26 98 42 03 E9 1E 00
   3.330000 1      528             Rx   d 8 03 CB 03 EA 03 E1 03 EE
   3.340000 1      201             Rx   d 8 29 26 AC 42 03 EC 32 00
   3.340000 1      648             Rx   d 8 20 4C 09 AB 00 00 00 00
   3.350000 1      201             Rx   d 8 29 26 C0 42 03 EF 22 00
   3.350000 1      528             Rx   d 8 03 FF 03 D0 03 EB 03 F0
   3.360000 1      201             Rx   d 8 2A 26 D4 42 03 F2 2F 00
   3.370000 1      201             Rx   d 8 2A 26 E8 42 03 F5 2B 00
   3.370000 1      528             Rx   d 8 03 EA 04 1A 03 DC 03 ED
   3.380000 1      201             Rx   d 8 2A 26 FC 42 03 F8 22 00
   3.390000 1      201             Rx   d 8 2A 27 10 42 03 FB 30 00
   3.390000 1      384             Rx   d 8 9F 0E 9A 13 2A 4A 44 00
   3.390000 1      528             Rx   d 8 04 22 04 02 04 16 04 0C
   3.390000 1      648             Rx   d 8 20 4C 09 C4 00 00 00 00
   3.390000 1      800             Rx   d 8 00 40 00 00 00 00 00 00
   3.400000 1      201             Rx   d 8 2A 27 24 42 03 FE 24 00
   3.410000 1      201             Rx   d 8 2A 27 38 42 04 01 31 00
   3.410000 1      528             Rx   d 8 03 E0 04 19 03 F1 04 19
   3.420000 1      201             Rx   d 8 2B 27 4C 42 04 04 29 00
   3.430000 1      201             Rx   d 8 2B 27 60 42 04 07 21 00
   3.430000 1  ErrorFrame      E
   3.440000 1      201             Rx   d 8 2B 27 74 42 04 0A 32 00
   3.440000 1      648             Rx   d 8 20 4C 09 DD 00 00 00 00
   3.450000 1      201             Rx   d 8 2B 27 88 42 04 0D 2B 00
   3.450000 1      528             Rx   d 8 04 2D 04 28 04 0D 04 08
   3.460000 1      201             Rx   d 8 2B 27 9C 42 04 10 2E 00
   3.470000 1      201             Rx   d 8 2B 27 B0 42 04 13 30 00
   3.470000 1      528             Rx   d 8 04 16 04 28 04 30 03 FC
   3.480000 1      201             Rx   d 8 2B 27 C4 42 04 16 26 00
   3.490000 1      201             Rx   d 8 2C 27 D8 42 04 19 2E 00
   3.490000 1      384             Rx   d 8 9F 0E 96 13 52 42 3E 00
   3.490000 1      528             Rx   d 8 04 00 04 08 04 36 04 20
   3.490000 1      648             Rx   d 8 20 4C 09 F6 00 00 00 00
   3.500000 1      201             Rx   d 8 2C 27 EC 42 04 1C 24 00
   3.510000 1      201             Rx   d 8 2C 28 00 42 04 1F 20 00
   3.510000 1      528             Rx   d 8 04 44 03 FE 04 2A 04 20
   3.520000 1      201             Rx   d 8 2C 28 14 42 04 22 31 00
   3.530000 1      201             Rx   d 8 2C 28 28 42 04 25 21 00
   3.530000 1      528             Rx   d 8 04 36 04 15 04 0C 04 3C
   3.540000 1      201             Rx   d 8 2C 28 3C 42 04 28 20 00
   3.540000 1      648             Rx   d 8 20 4C 0A 0F 00 00 00 00
   3.550000 1      201             Rx   d 8 2C 28 50 42 04 2B 28 00
   3.550000 1      528             Rx   d 8 04 26 04 03 04 43 04 28
   3.560000 1      201             Rx   d 8 2C 28 64 42 04 2E 29 00
   3.570000 1      201             Rx   d 8 2D 28 78 42 04 31 25 00
   3.570000 1      528             Rx   d 8 04 4E 04 03 04 2A 04 39
   3.580000 1      201             Rx   d 8 2D 28 8C 42 04 34 30 00
   3.590000 1      201             Rx   d 8 2D 28 A0 42 04 37 27 00
   3.590000 1      384             Rx   d 8 9F 0E 52 13 F9 46 3F 00
   3.590000 1      528             Rx   d 8 04 16 04 66 04 37 04 55
   3.590000 1      648             Rx   d 8 20 4C 0A 28 00 00 00 00
   3.590000 1      800             Rx   d 8 00 40 00 00 00 00 00 00
   3.600000 1      201             Rx   d 8 2D 28 B4 42 04 3A 23 00
   3.610000 1      201             Rx   d 8 2D 28 C8 42 04 3D 23 00
   3.610000 1      528             Rx   d 8 04 4A 04 37 04 48 04 3D
   3.620000 1      201             Rx   d 8 2D 28 DC 42 04 40 20 00
   3.630000 1      201             Rx   d 8 2D 28 F0 42 04 43 27 00
   3.630000 1      528             Rx   d 8 04 21 04 20 04 30 04 4B
   3.640000 1      201             Rx   d 8 2D 29 04 42 04 46 25 00
   3.640000 1      648             Rx   d 8 20 4C 0A 41 00 00 00 00
   3.650000 1      201             Rx   d 8 2D 29 18 42 04 49 22 00
   3.650000 1      528             Rx   d 8 04 2D 04 31 04 35 04 3D
   3.660000 1      201             Rx   d 8 2D 29 2C 42 04 4C 27 00
   3.670000 1      201             Rx   d 8 2E 29 40 42 04 4F 32 00
   3.670000 1      528             Rx   d 8 04 66 04 76 04 38 04 6A
   3.680000 1      201             Rx   d 8 2E 29 54 42 04 52 23 00
   3.690000 1      201             Rx   d 8 2E 29 68 42 04 55 30 00
   3.690000 1      384             Rx   d 8 9F 0E E1 15 04 4A 45 00
   3.690000 1      528             Rx   d 8 04 7D 04 5D 04 4B 04 42
   3.690000 1      648             Rx   d 8 20 4C 0A 5A 00 00 00 00
   3.700000 1      201             Rx   d 8 2E 29 7C 42 04 58 21 00
   3.710000 1      201             Rx   d 8 2E 29 90 42 04 5B 31 00
   3.710000 1      528             Rx   d 8 04 60 04 4C 04 51 04 55
   3.720000 1      201             Rx   d 8 2E 29 A4 42 04 5E 23 00
   3.730000 1      201             Rx   d 8 2E 29 B8 42 04 61 2A 00
   3.730000 1      528             Rx   d 8 04 91 04 3A 04 6E 04 44
   3.740000 1      201             Rx   d 8 2E 29 CC 42 04 64 29 00
   3.740000 1      648             Rx   d 8 20 4C 0A 73 00 00 00 00
   3.750000 1      201             Rx   d 8 2E 29 E0 42 04 67 27 00
   3.750000 1      528             Rx   d 8 04 40 04 40 04 4A 04 79
   3.760000 1      201             Rx   d 8 2F 29 F4 42 04 6A 2A 00
   3.770000 1      201             Rx   d 8 2F 2A 08 42 04 6D 30 00
   3.770000 1      528             Rx   d 8 04 51 04 5B 04 52 04 60
   3.780000 1      201             Rx   d 8 2F 2A 1C 42 04 70 27 00
   3.790000 1      201             Rx   d 8 2F 2A 30 42 04 73 2D 00
   3.790000 1      384             Rx   d 8 9F 0D FF 14 16 45 40 00
   3.790000 1      528             Rx   d 8 04 A3 04 71 04 7C 04 7E
   3.790000 1      648             Rx   d 8 20 4C 0A 8C 00 00 00 00
   3.790000 1      800             Rx   d 8 00 40 00 00 00 00 00 00
   3.800000 1      201             Rx   d 8 2F 2A 44 42 04 76 2E 00
   3.810000 1      201             Rx   d 8 30 2A 58 42 04 79 2A 00
   3.810000 1      528             Rx   d 8 04 71 04 65 04 61 04 5D
   3.820000 1      201             Rx   d 8 30 2A 6C 42 04 7C 24 00
   3.830000 1      201             Rx   d 8 30 2A 80 42 04 7F 29 00
   3.830000 1      528             Rx   d 8 04 8A 04 6A 04 97 04 80
   3.840000 1      201             Rx   d 8 30 2A 94 42 04 82 2C 00
   3.840000 1      648             Rx   d 8 20 4C 0A A5 00 00 00 00
   3.850000 1      201             Rx   d 8 30 2A A8 42 04 85 1F 00
   3.850000 1      528             Rx   d 8 04 60 04 5E 04 A3 04 8D
   3.860000 1      201             Rx   d 8 30 2A BC 42 04 88 26 00
   3.870000 1      201             Rx   d 8 30 2A D0 42 04 8B 21 00
   3.870000 1      528             Rx   d 8 04 62 04 68 04 96 04 8A
   3.880000 1      201             Rx   d 8 30 2A E4 42 04 8E 25 00
   3.890000 1      201             Rx   d 8 31 2A F8 42 04 91 24 00
   3.890000 1      384             Rx   d 8 9F 0E F8 13 BB 4A 41 00
   3.890000 1      528             Rx   d 8 04 B6 04 70 04 98 04 A1
   3.890000 1      648             Rx   d 8 20 4C 0A BE 00 00 00 00
   3.900000 1      201             Rx   d 8 31 2B 0C 42 04 94 2B 00
   3.910000 1      201             Rx   d 8 31 2B 20 42 04 97 2D 00
   3.910000 1      528             Rx   d 8 04 9E 04 A8 04 80 04 B3
   3.920000 1      201             Rx   d 8 31 2B 34 42 04 9A 27 00
   3.930000 1      201             Rx   d 8 31 2B 48 42 04 9D 2F 00
   3.930000 1      528             Rx   d 8 04 9A 04 8C 04 94 04 B9
   3.940000 1      201             Rx   d 8 31 2B 5C 42 04 A0 2F 00
   3.940000 1      648             Rx   d 8 20 4C 0A D7 00 00 00 00
   3.950000 1      201             Rx   d 8 31 2B 70 42 04 A3 2D 00
   3.950000 1      528             Rx   d 8 04 B9 04 93 04 B2 04 A4
   3.960000 1      201             Rx   d 8 32 2B 84 42 04 A6 2E 00
   3.970000 1      201             Rx   d 8 32 2B 98 42 04 A9 20 00
   3.970000 1      528             Rx   d 8 04 D5 04 9A 04 A9 04 9C
   3.980000 1      201             Rx   d 8 32 2B AC 42 04 AC 24 00
   3.990000 1      201             Rx   d 8 32 2B C0 42 04 AF 23 00
   3.990000 1      384             Rx   d 8 9F 0F 4C 14 46 44 41 00
   3.990000 1      528             Rx   d 8 04 A0 04 A1 04 C9 04 9A
   3.990000 1      648             Rx   d 8 20 4C 0A F0 00 00 00 00
   3.990000 1      800             Rx   d 8 00 40 00 00 00 00 00 00
   4.000000 1      201             Rx   d 8 32 2B D4 43 04 B2 22 00
   4.010000 1      201             Rx   d 8 32 2B E8 43 04 B5 23 00
   4.010000 1      528             Rx   d 8 04 E2 04 B6 04 AF 04 CF
   4.020000 1      201             Rx   d 8 33 2B FC 43 04 B8 2E 00
   4.030000 1      201             Rx   d 8 33 2C 10 43 04 BB 31 00
   4.030000 1      528             Rx   d 8 04 C9 04 D4 04 C6 04 A5
   4.040000 1      201             Rx   d 8 33 2C 24 43 04 BE 20 00
   4.040000 1      648             Rx   d 8 20 4D 0B 09 00 00 00 00
   4.050000 1      201             Rx   d 8 33 2C 38 43 04 C1 21 00
   4.050000 1      528             Rx   d 8 04 93 04 A2 04 BE 04 DA
   4.060000 1      201             Rx   d 8 33 2C 4C 43 04 C4 2C 00
   4.070000 1      201             Rx   d 8 33 2C 60 43 04 C7 1F 00
   4.070000 1      528             Rx   d 8 04 B8 04 9B 04 C2 04 BA
   4.080000 1      201             Rx   d 8 33 2C 74 43 04 CA 2E 00
   4.090000 1      201             Rx   d 8 33 2C 88 43 04 CD 24 00
   4.090000 1      384             Rx   d 8 9F 0E 8C 14 E4 41 44 00
   4.090000 1      528             Rx   d 8 04 EB 04 EE 04 C7 04 BA
   4.090000 1      648             Rx   d 8 20 4D 0B 22 00 00 00 00
   4.100000 1      201             Rx   d 8 33 2C 9C 43 04 D0 26 00
   4.110000 1      201             Rx   d 8 34 2C B0 43 04 D3 1E 00
   4.110000 1      528             Rx   d 8 04 DD 04 B6 04 D2 04 B8
   4.120000 1      201             Rx   d 8 34 2C C4 43 04 D6 23 00
   4.130000 1      201             Rx   d 8 34 2C D8 43 04 D9 30 00
   4.130000 1      528             Rx   d 8 04 F6 04 FF 04 F1 04 D6
   4.140000 1      201             Rx   d 8 34 2C EC 43 04 DC 25 00
   4.140000 1      648             Rx   d 8 20 4D 0B 3B 00 00 00 00
   4.150000 1      201             Rx   d 8 34 2D 00 43 04 DF 20 00
   4.150000 1      528             Rx   d 8 04 D7 04 DB 04 DC 04 D7
   4.160000 1      201             Rx   d 8 34 2D 14 43 04 E2 26 00
   4.170000 1      201             Rx   d 8 34 2D 28 43 04 E5 2B 00
   4.170000 1      528             Rx   d 8 04 B4 04 FE 04 ED 04 DA
   4.180000 1      201             Rx   d 8 34 2D 3C 43 04 E8 2F 00
   4.190000 1      201             Rx   d 8 34 2D 50 43 04 EB 25 00
   4.190000 1      384             Rx   d 8 9F 0F 0B 14 D8 43 43 00
   4.190000 1      528             Rx   d 8 04 F9 04 C9 04 D4 05 02
   4.190000 1      648             Rx   d 8 20 4D 0B 54 00 00 00 00
   4.190000 1      800             Rx   d 8 00 40 00 00 00 00 00 00
   4.200000 1      201             Rx   d 8 35 2D 64 43 04 EE 32 00
   4.210000 1      201             Rx   d 8 35 2D 78 43 04 F1 1F 00
   4.210000 1      528             Rx   d 8 04 F5 04 E6 04 D9 04 E5
   4.220000 1      201             Rx   d 8 35 2D 8C 43 04 F4 2E 00
   4.230000 1      201             Rx   d 8 35 2D A0 43 04 F7 32 00
   4.230000 1      528             Rx   d 8 05 05 04 D7 05 0E 04 E7
   4.240000 1      201             Rx   d 8 35 2D B4 43 04 FA 24 00
   4.240000 1      648             Rx   d 8 20 4D 0B 6D 00 00 00 00
   4.250000 1      201             Rx   d 8 35 2D C8 43 04 FD 2C 00
   4.250000 1      528             Rx   d 8 04 D2 05 0B 05 19 04 FD
   4.260000 1      201             Rx   d 8 35 2D DC 43 05 00 27 00
   4.270000 1      201             Rx   d 8 36 2D F0 43 05 03 26 00
   4.270000 1      528             Rx   d 8 05 22 04 F1 05 08 05 0C
   4.280000 1      201             Rx   d 8 36 2E 04 43 05 06 2E 00
   4.290000 1      201             Rx   d 8 36 2E 18 43 05 09 32 00
   4.290000 1      384             Rx   d 8 9F 0E 8A 15 04 41 42 00
   4.290000 1      528             Rx   d 8 05 01 05 37 05 25 05 1D
   4.290000 1      648             Rx   d 8 20 4D 0B 86 00 00 00 00
   4.300000 1      201             Rx   d 8 36 2E 2C 43 05 0C 2D 00
   4.310000 1      201             Rx   d 8 36 2E 40 43 05 0F 25 00
   4.310000 1      528             Rx   d 8 04 F1 05 33 05 24 04 F4
   4.320000 1      201             Rx   d 8 36 2E 54 43 05 12 30 00
   4.330000 1      201             Rx   d 8 37 2E 68 43 05 15 29 00
   4.330000 1      528             Rx   d 8 05 1E 05 3C 05 29 05 33
   4.340000 1      201             Rx   d 8 37 2E 7C 43 05 18 25 00
   4.340000 1      648             Rx   d 8 20 4D 0B 9F 00 00 00 00
   4.350000 1      201             Rx   d 8 37 2E 90 43 05 1B 22 00
   4.350000 1      528             Rx   d 8 05 4A 05 3B 05 15 05 1A
   4.360000 1      201             Rx   d 8 37 2E A4 43 05 1E 24 00
   4.370000 1      201             Rx   d 8 37 2E B8 43 05 21 23 00
   4.370000 1      528             Rx   d 8 05 0A 05 12 05 0E 05 10
   4.380000 1      201             Rx   d 8 37 2E CC 43 05 24 25 00
   4.390000 1      201             Rx   d 8 37 2E E0 43 05 27 2F 00
   4.390000 1      384             Rx   d 8 9F 0F 98 13 8E 4A 43 00
   4.390000 1      528             Rx   d 8 05 26 05 59 05 3F 05 1C
   4.390000 1      648             Rx   d 8 20 4D 0B B8 00 00 00 00
   4.390000 1      800             Rx   d 8 00 40 00 00 00 00 00 00
   4.400000 1      201             Rx   d 8 37 2E F4 43 05 2A 23 00
   4.410000 1      201             Rx   d 8 37 2F 08 43 05 2D 22 00
   4.410000 1      528             Rx   d 8 05 4C 05 54 05 1A 05 18
   4.420000 1      201             Rx   d 8 37 2F 1C 43 05 30 21 00
   4.430000 1      201             Rx   d 8 37 2F 30 43 05 33 1F 00
   4.430000 1      528             Rx   d 8 05 2D 05 22 05 41 05 46
   4.440000 1      201             Rx   d 8 37 2F 44 43 05 36 23 00
   4.440000 1      648             Rx   d 8 20 4D 0B D1 00 00 00 00
   4.450000 1      201             Rx   d 8 38 2F 58 43 05 39 30 00
   4.450000 1      528             Rx   d 8 05 3F 05 29 05 3D 05 48
   4.460000 1      201             Rx   d 8 38 2F 6C 43 05 3C 1F 00
   4.470000 1      201             Rx   d 8 38 2F 80 43 05 3F 30 00
   4.470000 1      528             Rx   d 8 05 66 05 36 05 55 05 5D
   4.480000 1      201             Rx   d 8 38 2F 94 43 05 42 28 00
   4.490000 1      201             Rx   d 8 38 2F A8 43 05 45 1F 00
   4.490000 1      384             Rx   d 8 9F 0E E1 14 84 47 44 00
   4.490000 1      528             Rx   d 8 05 71 05 68 05 56 05 36
   4.490000 1      648             Rx   d 8 20 4D 0B EA 00 00 00 00
   4.500000 1      201             Rx   d 8 38 2F BC 43 05 48 2F 00
   4.510000 1      201             Rx   d 8 38 2F D0 43 05 4B 2C 00
   4.510000 1      528             Rx   d 8 05 48 05 72 05 64 05 3E
   4.520000 1      201             Rx   d 8 38 2F E4 43 05 4E 31 00
   4.530000 1      201             Rx   d 8 38 2F F8 43 05 51 21 00
   4.530000 1      528             Rx   d 8 05 68 05 3C 05 52 05 68
   4.540000 1      201             Rx   d 8 38 30 0C 43 05 54 29 00
   4.540000 1      648             Rx   d 8 20 4D 0C 03 00 00 00 00
   4.550000 1      201             Rx   d 8 38 30 20 43 05 57 31 00
   4.550000 1      528             Rx   d 8 05 7D 05 77 05 74 05 62
   4.560000 1      201             Rx   d 8 38 30 34 43 05 5A 2E 00
   4.570000 1      201             Rx   d 8 38 30 48 43 05 5D 1F 00
   4.570000 1      528             Rx   d 8 05 3A 05 61 05 75 05 67
   4.580000 1      201             Rx   d 8 39 30 5C 43 05 60 2C 00
   4.590000 1      201             Rx   d 8 39 30 70 43 05 63 1F 00
   4.590000 1      384             Rx   d 8 9F 0E 3F 14 25 42 3F 00
   4.590000 1      528             Rx   d 8 05 6A 05 65 05 7B 05 7C
   4.590000 1      648             Rx   d 8 20 4D 0C 1C 00 00 00 00
   4.590000 1      800             Rx   d 8 00 40 00 00 00 00 00 00
   4.600000 1      201             Rx   d 8 39 30 84 43 05 66 32 00
   4.610000 1      201             Rx   d 8 39 30 98 43 05 69 1E 00
   4.610000 1      528             Rx   d 8 05 88 05 5B 05 73 05 58
   4.620000 1      201             Rx   d 8 39 30 AC 43 05 6C 26 00
   4.630000 1      201             Rx   d 8 3A 30 C0 43 05 6F 26 00
   4.630000 1      528             Rx   d 8 05 42 05 71 05 72 05 7C
   4.640000 1      201             Rx   d 8 3A 30 D4 43 05 72 2B 00
   4.640000 1      648             Rx   d 8 20 4D 0C 35 00 00 00 00
   4.650000 1      201             Rx   d 8 3A 30 E8 43 05 75 2A 00
   4.650000 1      528             Rx   d 8 05 7B 05 5F 05 70 05 65
   4.660000 1      201             Rx   d 8 3A 30 FC 43 05 78 22 00
   4.670000 1      201             Rx   d 8 3A 31 10 43 05 7B 27 00
   4.670000 1      528             Rx   d 8 05 66 05 9B 05 69 05 5F
   4.680000 1      201             Rx   d 8 3A 31 24 43 05 7E 2B 00
   4.690000 1      201             Rx   d 8 3A 31 38 43 05 81 27 00
   4.690000 1      384             Rx   d 8 9F 0F 81 14 87 47 44 00
   4.690000 1      528             Rx   d 8 05 67 05 9D 05 9A 05 9B
   4.690000 1      648             Rx   d 8 20 4D 0C 4E 00 00 00 00
   4.700000 1      201             Rx   d 8 3A 31 4C 43 05 84 27 00
   4.710000 1      201             Rx   d 8 3A 31 60 43 05 87 2E 00
   4.710000 1      528             Rx   d 8 05 6C 05 B7 05 91 05 7C
   4.720000 1      201             Rx   d 8 3A 31 74 43 05 8A 20 00
   4.730000 1      201             Rx   d 8 3A 31 88 43 05 8D 24 00
   4.730000 1      528             Rx   d 8 05 7A 05 A9 05 9A 05 7D
   4.740000 1      201             Rx   d 8 3B 31 9C 43 05 90 21 00
   4.740000 1      648             Rx   d 8 20 4D 0C 67 00 00 00 00
   4.750000 1      201             Rx   d 8 3B 31 B0 43 05 93 23 00
   4.750000 1      528             Rx   d 8 05 91 05 B6 05 A1 05 A7
   4.760000 1      201             Rx   d 8 3B 31 C4 43 05 96 23 00
   4.770000 1      201             Rx   d 8 3B 31 D8 43 05 99 32 00
   4.770000 1      528             Rx   d 8 05 89 05 78 05 B4 05 8E
   4.780000 1      201             Rx   d 8 3B 31 EC 43 05 9C 30 00
   4.790000 1      201             Rx   d 8 3B 32 00 43 05 9F 25 00
   4.790000 1      384             Rx   d 8 9F 0E 75 14 A1 46 41 00
   4.790000 1      528             Rx   d 8 05 D1 05 A0 05 88 05 B1
   4.790000 1      648             Rx   d 8 20 4D 0C 80 00 00 00 00
   4.790000 1      800             Rx   d 8 00 40 00 00 00 00 00 00
   4.800000 1      201             Rx   d 8 3B 32 14 43 05 A2 27 00
   4.810000 1      201             Rx   d 8 3B 32 28 43 05 A5 2C 00
   4.810000 1      528             Rx   d 8 05 B1 05 BE 05 9C 05 B1
   4.820000 1      201             Rx   d 8 3C 32 3C 43 05 A8 24 00
   4.830000 1      201             Rx   d 8 3C 32 50 43 05 AB 29 00
   4.830000 1      528             Rx   d 8 05 81 05 83 05 92 05 9C
   4.840000 1      201             Rx   d 8 3C 32 64 43 05 AE 24 00
   4.840000 1      648             Rx   d 8 20 4D 0C 99 00 00 00 00
   4.850000 1      201             Rx   d 8 3C 32 78 43 05 B1 32 00
   4.850000 1      528             Rx   d 8 05 80 05 99 05 A9 05 C7
   4.860000 1      201             Rx   d 8 3C 32 8C 43 05 B4 2B 00
   4.870000 1      201             Rx   d 8 3C 32 A0 43 05 B7 2F 00
   4.870000 1      528             Rx   d 8 05 E5 05 D1 05 C9 05 B7
   4.880000 1      201             Rx   d 8 3C 32 B4 43 05 BA 2E 00
   4.890000 1      201             Rx   d 8 3C 32 C8 43 05 BD 1E 00
   4.890000 1      384             Rx   d 8 9F 0E 02 14 31 44 42 00
   4.890000 1      528             Rx   d 8 05 EC 05 DA 05 A0 05 D9
   4.890000 1      648             Rx   d 8 20 4D 0C B2 00 00 00 00
   4.900000 1      201             Rx   d 8 3C 32 DC 43 05 C0 28 00
   4.910000 1      201             Rx   d 8 3D 32 F0 43 05 C3 23 00
   4.910000 1      528             Rx   d 8 05 AE 05 A0 05 AB 05 D4
   4.920000 1      201             Rx   d 8 3D 33 04 43 05 C6 32 00
   4.930000 1      201             Rx   d 8 3D 33 18 43 05 C9 24 00
   4.930000 1      528             Rx   d 8 05 D4 05 BC 05 C5 05 D2
   4.940000 1      201             Rx   d 8 3D 33 2C 43 05 CC 2C 00
   4.940000 1      648             Rx   d 8 20 4D 0C CB 00 00 00 00
   4.950000 1      201             Rx   d 8 3D 33 40 43 05 CF 21 00
   4.950000 1      528             Rx   d 8 05 F0 05 D2 05 CC 05 C1
   4.960000 1      201             Rx   d 8 3D 33 54 43 05 D2 21 00
   4.970000 1      201             Rx   d 8 3E 33 68 43 05 D5 1E 00
   4.970000 1      528             Rx   d 8 05 D2 05 C4 05 E0 05 E2
   4.980000 1      201             Rx   d 8 3E 33 7C 43 05 D8 24 00
   4.990000 1      201             Rx   d 8 3E 33 90 43 05 DB 2E 00
   4.990000 1      384             Rx   d 8 9F 0F 77 13 E2 45 45 00
   4.990000 1      528             Rx   d 8 05 CC 05 AA 05 EB 05 D3
   4.990000 1      648             Rx   d 8 20 4D 0C E4 00 00 00 00
   4.990000 1      800             Rx   d 8 00 40 00 00 00 00 00 00
   5.000000 1      201             Rx   d 8 3E 33 A4 43 05 DE 23 00
   5.010000 1      201             Rx   d 8 3E 33 B8 43 05 E1 32 00
   5.010000 1      528             Rx   d 8 06 09 05 B6 05 E3 05 E8
   5.020000 1      201             Rx   d 8 3E 33 CC 43 05 E4 2F 00
   5.030000 1      201             Rx   d 8 3E 33 E0 43 05 E7 28 00
   5.030000 1      528             Rx   d 8 05 EF 05 C4 05 E6 05 D8
   5.040000 1      201             Rx   d 8 3E 33 F4 43 05 EA 31 00
   5.040000 1      648             Rx   d 8 20 4D 0C FD 00 00 00 00
   5.050000 1      201             Rx   d 8 3E 34 08 43 05 ED 2D 00
   5.050000 1      528             Rx   d 8 05 D8 05 C7 05 D2 05 EA
   5.060000 1      201             Rx   d 8 3F 34 1C 43 05 F0 23 00
   5.070000 1      201             Rx   d 8 3F 34 30 43 05 F3 1E 00
   5.070000 1      528             Rx   d 8 06 0A 06 05 06 00 05 F8
   5.080000 1      201             Rx   d 8 3F 34 44 43 05 F6 23 00
   5.090000 1      201             Rx   d 8 3F 34 58 43 05 F9 1F 00
   5.090000 1      384             Rx   d 8 9F 0E 5A 13 70 47 43 00
   5.090000 1      528             Rx   d 8 05 F5 06 12 05 F2 05 F6
   5.090000 1      648             Rx   d 8 20 4D 0D 16 00 00 00 00
   5.100000 1      201             Rx   d 8 3F 34 6C 43 05 FC 2C 00
   5.110000 1      201             Rx   d 8 3F 34 80 43 05 FF 25 00
   5.110000 1      528             Rx   d 8 06 12 05 EB 06 17 06 1D
   5.120000 1      201             Rx   d 8 3F 34 94 43 06 02 1F 00
   5.130000 1      201             Rx   d 8 40 34 A8 43 06 05 32 00
   5.130000 1      528             Rx   d 8 05 F5 05 D7 06 06 05 FF
   5.140000 1      201             Rx   d 8 40 34 BC 43 06 08 28 00
   5.140000 1      648             Rx   d 8 20 4D 0D 2F 00 00 00 00
   5.150000 1      201             Rx   d 8 40 34 D0 43 06 0B 2A 00
   5.150000 1      528             Rx   d 8 06 34 05 EB 05 F6 05 F4
   5.160000 1      201             Rx   d 8 40 34 E4 43 06 0E 21 00
   5.170000 1      201             Rx   d 8 40 34 F8 43 06 11 29 00
   5.170000 1      528             Rx   d 8 06 14 06 19 06 27 06 0E
   5.180000 1      201             Rx   d 8 40 35 0C 43 06 14 29 00
   5.190000 1      201             Rx   d 8 40 35 20 43 06 17 2F 00
   5.190000 1      384             Rx   d 8 9F 0D E3 15 68 41 44 00
   5.190000 1      528             Rx   d 8 06 0A 06 37 06 1E 06 33
   5.190000 1      648             Rx   d 8 20 4D 0D 48 00 00 00 00
   5.190000 1      800             Rx   d 8 00 40 00 00 00 00 00 00
   5.200000 1      201             Rx   d 8 40 35 34 43 06 1A 22 00
   5.210000 1      201             Rx   d 8 40 35 48 43 06 1D 32 00
   5.210000 1      528             Rx   d 8 05 FB 05 F2 06 1D 06 20
   5.220000 1      201             Rx   d 8 40 35 5C 43 06 20 22 00
   5.230000 1      201             Rx   d 8 40 35 70 43 06 23 20 00
   5.230000 1      528             Rx   d 8 06 1A 06 35 06 29 06 27
   5.240000 1      201             Rx   d 8 40 35 84 43 06 26 2B 00
   5.240000 1      648             Rx   d 8 20 4D 0D 61 00 00 00 00
   5.250000 1      201             Rx   d 8 40 35 98 43 06 29 1F 00
   5.250000 1      528             Rx   d 8 06 36 06 4E 06 31 06 13
   5.260000 1      201             Rx   d 8 41 35 AC 43 06 2C 2F 00
   5.270000 1      201             Rx   d 8 41 35 C0 43 06 2F 24 00
   5.270000 1      528             Rx   d 8 06 3E 06 03 06 3A 06 2D
   5.280000 1      201             Rx   d 8 41 35 D4 43 06 32 26 00
   5.290000 1      201             Rx   d 8 41 35 E8 43 06 35 2F 00
   5.290000 1      384             Rx   d 8 9F 0E E1 13 D4 42 44 00
   5.290000 1      528             Rx   d 8 06 63 06 28 06 34 06 43
   5.290000 1      648             Rx   d 8 20 4D 0D 7A 00 00 00 00
   5.300000 1      201             Rx   d 8 41 35 FC 43 06 38 26 00
   5.310000 1      201             Rx   d 8 41 36 10 43 06 3B 1F 00
   5.310000 1      528             Rx   d 8 06 51 06 66 06 2F 06 36
   5.320000 1      201             Rx   d 8 42 36 24 43 06 3E 2D 00
   5.330000 1      201             Rx   d 8 42 36 38 43 06 41 29 00
   5.330000 1      528             Rx   d 8 06 5A 06 5B 06 3F 06 33
   5.340000 1      201             Rx   d 8 42 36 4C 43 06 44 2E 00
   5.340000 1      648             Rx   d 8 20 4D 0D 93 00 00 00 00
   5.350000 1      201             Rx   d 8 42 36 60 43 06 47 2D 00
   5.350000 1      528             Rx   d 8 06 3A 06 1F 06 51 06 39
   5.360000 1      201             Rx   d 8 42 36 74 43 06 4A 2A 00
   5.370000 1      201             Rx   d 8 42 36 88 43 06 4D 23 00
   5.370000 1      528             Rx   d 8 06 7F 06 63 06 42 06 41
   5.380000 1      201             Rx   d 8 42 36 9C 43 06 50 2C 00
   5.390000 1      201             Rx   d 8 42 36 B0 43 06 53 31 00
   5.390000 1      384             Rx   d 8 9F 0D F4 13 CF 41 3E 00
   5.390000 1      528             Rx   d 8 06 33 06 37 06 4B 06 5E
   5.390000 1      648             Rx   d 8 20 4D 0D AC 00 00 00 00
   5.390000 1      800             Rx   d 8 00 40 00 00 00 00 00 00
   5.400000 1      201             Rx   d 8 42 36 C4 43 06 56 27 00
   5.410000 1      201             Rx   d 8 42 36 D8 43 06 59 29 00
   5.410000 1      528             Rx   d 8 06 65 06 43 06 56 06 65
   5.420000 1      201             Rx   d 8 42 36 EC 43 06 5C 2A 00
   5.430000 1      201             Rx   d 8 43 37 00 43 06 5F 2B 00
   5.430000 1      528             Rx   d 8 06 85 06 91 06 63 06 64
   5.440000 1      201             Rx   d 8 43 37 14 43 06 62 24 00
   5.440000 1      648             Rx   d 8 20 4D 0D C5 00 00 00 00
   5.450000 1      201             Rx   d 8 43 37 28 43 06 65 31 00
   5.450000 1      528             Rx   d 8 06 73 06 68 06 7F 06 7A
   5.460000 1      201             Rx   d 8 43 37 3C 43 06 68 29 00
   5.470000 1      201             Rx   d 8 43 37 50 43 06 6B 2F 00
   5.470000 1      528             Rx   d 8 06 94 06 48 06 72 06 5E
   5.480000 1      201             Rx   d 8 43 37 64 43 06 6E 25 00
   5.490000 1      201             Rx   d 8 43 37 78 43 06 71 2A 00
   5.490000 1      384             Rx   d 8 9F 0E 06 13 B8 47 41 00
   5.490000 1      528             Rx   d 8 06 5D 06 4A 06 75 06 5A
   5.490000 1      648             Rx   d 8 20 4D 0D DE 00 00 00 00
   5.500000 1      201             Rx   d 8 43 37 8C 43 06 74 29 00
   5.510000 1      201             Rx   d 8 44 37 A0 43 06 77 26 00
   5.510000 1      528             Rx   d 8 06 63 06 92 06 82 06 88
   5.520000 1      201             Rx   d 8 44 37 B4 43 06 7A 27 00
   5.530000 1      201             Rx   d 8 44 37 C8 43 06 7D 2B 00
   5.530000 1      528             Rx   d 8 06 54 06 8A 06 86 06 6A
   5.540000 1      201             Rx   d 8 44 37 DC 43 06 80 25 00
   5.540000 1      648             Rx   d 8 20 4D 0D F7 00 00 00 00
   5.550000 1      201             Rx   d 8 44 37 F0 43 06 83 2A 00
   5.550000 1      528             Rx   d 8 06 9A 06 56 06 82 06 9F
   5.560000 1      201             Rx   d 8 44 38 04 43 06 86 27 00
   5.570000 1      201             Rx   d 8 45 38 18 43 06 89 23 00
   5.570000 1      528             Rx   d 8 06 7E 06 A6 06 A3 06 9B
   5.580000 1      201             Rx   d 8 45 38 2C 43 06 8C 2E 00
   5.590000 1      201             Rx   d 8 45 38 40 43 06 8F 2F 00
   5.590000 1      384             Rx   d 8 9F 0E 62 14 6B 44 3F 00
   5.590000 1      528             Rx   d 8 06 A7 06 6C 06 77 06 AB
   5.590000 1      648             Rx   d 8 20 4D 0E 10 00 00 00 00
   5.590000 1      800             Rx   d 8 00 40 00 00 00 00 00 00
   5.600000 1      201             Rx   d 8 45 38 54 43 06 92 31 00
   5.610000 1      201             Rx   d 8 45 38 68 43 06 95 2B 00
   5.610000 1      528             Rx   d 8 06 64 06 7F 06 8B 06 7D
   5.620000 1      201             Rx   d 8 45 38 7C 43 06 98 21 00
   5.630000 1      201             Rx   d 8 45 38 90 43 06 9B 26 00
   5.630000 1      528             Rx   d 8 06 90 06 A8 06 83 06 B6
   5.640000 1      201             Rx   d 8 45 38 A4 43 06 9E 32 00
   5.640000 1      648             Rx   d 8 20 4D 0E 29 00 00 00 00
   5.650000 1      201             Rx   d 8 46 38 B8 43 06 A1 21 00
   5.650000 1      528             Rx   d 8 06 C6 06 82 06 9C 06 9F
   5.660000 1      201             Rx   d 8 46 38 CC 43 06 A4 2B 00
   5.670000 1      201             Rx   d 8 46 38 E0 43 06 A7 1E 00
   5.670000 1      528             Rx   d 8 06 B4 06 99 06 A3 06 8A
   5.680000 1      201             Rx   d 8 46 38 F4 43 06 AA 27 00
   5.690000 1      201             Rx   d 8 46 39 08 43 06 AD 2D 00
   5.690000 1      384             Rx   d 8 9F 0F 6E 13 2E 46 40 00
   5.690000 1      528             Rx   d 8 06 9E 06 8C 06 9D 06 A5
   5.690000 1      648             Rx   d 8 20 4D 0E 42 00 00 00 00
   5.700000 1      201             Rx   d 8 47 39 1C 43 06 B0 32 00
   5.710000 1      201             Rx   d 8 47 39 30 43 06 B3 2E 00
   5.710000 1      528             Rx   d 8 06 E4 06 D1 06 AE 06 A8
   5.720000 1      201             Rx   d 8 47 39 44 43 06 B6 2E 00
   5.730000 1      201             Rx   d 8 47 39 58 43 06 B9 20 00
   5.730000 1      528             Rx   d 8 06 8B 06 A4 06 C8 06 CC
   5.740000 1      201             Rx   d 8 47 39 6C 43 06 BC 1F 00
   5.740000 1      648             Rx   d 8 20 4D 0E 5B 00 00 00 00
   5.750000 1      201             Rx   d 8 48 39 80 43 06 BF 2C 00
   5.750000 1      528             Rx   d 8 06 9B 06 9C 06 B4 06 A5
   5.760000 1      201             Rx   d 8 48 39 94 43 06 C2 2A 00
   5.770000 1      201             Rx   d 8 48 39 A8 43 06 C5 31 00
   5.770000 1      528             Rx   d 8 06 9F 06 BF 06 C4 06 CE
   5.780000 1      201             Rx   d 8 48 39 BC 43 06 C8 28 00
   5.790000 1      201             Rx   d 8 48 39 D0 43 06 CB 2C 00
   5.790000 1      384             Rx   d 8 9F 0F 35 13 34 41 3E 00
   5.790000 1      528             Rx   d 8 06 F1 06 C5 06 B3 06 DF
   5.790000 1      648             Rx   d 8 20 4D 0E 74 00 00 00 00
   5.790000 1      800             Rx   d 8 00 40 00 00 00 00 00 00
   5.800000 1      201             Rx   d 8 48 39 E4 43 06 CE 20 00
   5.810000 1      201             Rx   d 8 48 39 F8 43 06 D1 1E 00
   5.810000 1      528             Rx   d 8 06 FA 06 F6 06 BA 06 E1
   5.820000 1      201             Rx   d 8 48 3A 0C 43 06 D4 2C 00
   5.830000 1      201             Rx   d 8 48 3A 20 43 06 D7 2E 00
   5.830000 1      528             Rx   d 8 06 CA 06 A8 06 C5 06 E4
   5.840000 1      201             Rx   d 8 49 3A 34 43 06 DA 31 00
   5.840000 1      648             Rx   d 8 20 4D 0E 8D 00 00 00 00
   5.850000 1      201             Rx   d 8 49 3A 48 43 06 DD 20 00
   5.850000 1      528             Rx   d 8 06 D4 06 E0 06 F8 06 E5
   5.860000 1      201             Rx   d 8 49 3A 5C 43 06 E0 28 00
   5.870000 1      201             Rx   d 8 49 3A 70 43 06 E3 2A 00
   5.870000 1      528             Rx   d 8 06 B3 06 C8 06 F4 07 01
   5.880000 1      201             Rx   d 8 49 3A 84 43 06 E6 23 00
   5.890000 1      201             Rx   d 8 49 3A 98 43 06 E9 23 00
   5.890000 1      384             Rx   d 8 9F 0F 27 15 79 4A 45 00
   5.890000 1      528             Rx   d 8 06 CD 06 BA 06 F0 06 EE
   5.890000 1      648             Rx   d 8 20 4D 0E A6 00 00 00 00
   5.900000 1      201             Rx   d 8 49 3A AC 43 06 EC 22 00
   5.910000 1      201             Rx   d 8 4A 3A C0 43 06 EF 21 00
   5.910000 1      528             Rx   d 8 06 F1 06 F0 07 04 06 F3
   5.920000 1      201             Rx   d 8 4A 3A D4 43 06 F2 31 00
   5.930000 1      201             Rx   d 8 4A 3A E8 43 06 F5 2D 00
   5.930000 1      528             Rx   d 8 07 1C 06 FE 06 FD 07 04
   5.940000 1      201             Rx   d 8 4A 3A FC 43 06 F8 24 00
   5.940000 1      648             Rx   d 8 20 4D 0E BF 00 00 00 00
   5.950000 1      201             Rx   d 8 4A 3B 10 43 06 FB 1E 00
   5.950000 1      528             Rx   d 8 07 25 07 19 06 E1 07 01
   5.960000 1      201             Rx   d 8 4A 3B 24 43 06 FE 29 00
   5.970000 1      201             Rx   d 8 4A 3B 38 43 07 01 2E 00
   5.970000 1      528             Rx   d 8 06 F2 07 10 07 15 06 EA
   5.980000 1      201             Rx   d 8 4A 3B 4C 43 07 04 2C 00
   5.990000 1      201             Rx   d 8 4A 3B 60 43 07 07 25 00
   5.990000 1      384             Rx   d 8 9F 0E EF 15 68 49 44 00
   5.990000 1      528             Rx   d 8 07 33 06 E4 07 0C 07 1F
   5.990000 1      648             Rx   d 8 20 4D 0E D8 00 00 00 00
   5.990000 1      800             Rx   d 8 00 40 00 00 00 00 00 00
   6.000000 1      201             Rx   d 8 4B 3B 74 44 07 0A 32 00
   6.010000 1      201             Rx   d 8 4B 3B 88 44 07 0D 25 00
   6.010000 1      528             Rx   d 8 07 1F 06 F1 07 05 07 04
   6.020000 1      201             Rx   d 8 4B 3B 9C 44 07 10 29 00
   6.030000 1      201             Rx   d 8 4B 3B B0 44 07 13 2C 00
   6.030000 1      528             Rx   d 8 06 EF 06 F9 06 F6 06 F6
   6.040000 1      201             Rx   d 8 4B 3B C4 44 07 16 28 00
   6.040000 1      648             Rx   d 8 20 4E 0E F1 00 00 00 00
   6.050000 1      201             Rx   d 8 4B 3B D8 44 07 19 23 00
   6.050000 1      528             Rx   d 8 07 25 07 2B 06 FD 07 37
   6.060000 1      201             Rx   d 8 4B 3B EC 44 07 1C 26 00
   6.070000 1      201             Rx   d 8 4B 3C 00 44 07 1F 20 00
   6.070000 1      528             Rx   d 8 06 F0 07 08 07 02 07 1F
   6.080000 1      201             Rx   d 8 4B 3C 14 44 07 22 31 00
   6.090000 1      201             Rx   d 8 4B 3C 28 44 07 25 29 00
   6.090000 1      384             Rx   d 8 9F 0E 03 14 D3 44 42 00
   6.090000 1      528             Rx   d 8 06 FF 07 0E 07 14 07 14
   6.090000 1      648             Rx   d 8 20 4E 0F 0A 00 00 00 00
   6.100000 1      201             Rx   d 8 4C 3C 3C 44 07 28 25 00
   6.110000 1      201             Rx   d 8 4C 3C 50 44 07 2B 24 00
   6.110000 1      528             Rx   d 8 07 04 07 59 07 0F 07 43
   6.120000 1      201             Rx   d 8 4C 3C 64 44 07 2E 2A 00
   6.130000 1      201             Rx   d 8 4C 3C 78 44 07 31 29 00
   6.130000 1      528             Rx   d 8 07 20 07 3D 07 20 07 1C
   6.140000 1      201             Rx   d 8 4C 3C 8C 44 07 34 29 00
   6.140000 1      648             Rx   d 8 20 4E 0F 23 00 00 00 00
   6.150000 1      201             Rx   d 8 4C 3C A0 44 07 37 1F 00
   6.150000 1      528             Rx   d 8 07 0E 07 40 07 26 07 2B
   6.160000 1      201             Rx   d 8 4C 3C B4 44 07 3A 2A 00
   6.170000 1      201             Rx   d 8 4D 3C C8 44 07 3D 27 00
   6.170000 1      528             Rx   d 8 07 50 07 51 07 4E 07 22
   6.180000 1      201             Rx   d 8 4D 3C DC 44 07 40 27 00
   6.190000 1      201             Rx   d 8 4D 3C F0 44 07 43 26 00
   6.190000 1      384             Rx   d 8 9F 0E 59 13 F5 43 45 00
   6.190000 1      528             Rx   d 8 07 2D 07 3A 07 33 07 4F
   6.190000 1      648             Rx   d 8 20 4E 0F 3C 00 00 00 00
   6.190000 1      800             Rx   d 8 00 40 00 00 00 00 00 00
   6.200000 1      201             Rx   d 8 4D 3D 04 44 07 46 25 00
   6.210000 1      201             Rx   d 8 4D 3D 18 44 07 49 32 00
   6.210000 1      528             Rx   d 8 07 7A 07 5F 07 52 07 53
   6.220000 1      201             Rx   d 8 4D 3D 2C 44 07 4C 23 00
   6.230000 1      201             Rx   d 8 4D 3D 40 44 07 4F 24 00
   6.230000 1      528             Rx   d 8 07 23 07 32 07 49 07 5A
   6.240000 1      201             Rx   d 8 4D 3D 54 44 07 52 28 00
   6.240000 1      648             Rx   d 8 20 4E 0F 55 00 00 00 00
   6.250000 1      201             Rx   d 8 4E 3D 68 44 07 55 26 00
   6.250000 1      528             Rx   d 8 07 5A 07 7B 07 43 07 69
   6.260000 1      201             Rx   d 8 4E 3D 7C 44 07 58 22 00
   6.270000 1      201             Rx   d 8 4E 3D 90 44 07 5B 2C 00
   6.270000 1      528             Rx   d 8 07 85 07 34 07 65 07 57
   6.280000 1      201             Rx   d 8 4E 3D A4 44 07 5E 31 00
   6.290000 1      201             Rx   d 8 4E 3D B8 44 07 61 2D 00
   6.290000 1      384             Rx   d 8 9F 0E 17 13 67 47 45 00
   6.290000 1      528             Rx   d 8 07 53 07 75 07 69 07 4C
   6.290000 1      648             Rx   d 8 20 4E 0F 6E 00 00 00 00
   6.300000 1      201             Rx   d 8 4E 3D CC 44 07 64 2D 00
   6.310000 1      201             Rx   d 8 4E 3D E0 44 07 67 20 00
   6.310000 1      528             Rx   d 8 07 7D 07 7D 07 6E 07 55
   6.320000 1      201             Rx   d 8 4E 3D F4 44 07 6A 20 00
   6.330000 1      201             Rx   d 8 4E 3E 08 44 07 6D 2F 00
   6.330000 1      528             Rx   d 8 07 56 07 4F 07 65 07 88
   6.340000 1      201             Rx   d 8 4E 3E 1C 44 07 70 2A 00
   6.340000 1      648             Rx   d 8 20 4E 0F 87 00 00 00 00
   6.350000 1      201             Rx   d 8 4F 3E 30 44 07 73 2E 00
   6.350000 1      528             Rx   d 8 07 6B 07 86 07 63 07 5A
   6.360000 1      201             Rx   d 8 4F 3E 44 44 07 76 31 00
   6.370000 1      201             Rx   d 8 4F 3E 58 44 07 79 2D 00
   6.370000 1      528             Rx   d 8 07 9D 07 8F 07 86 07 62
   6.380000 1      201             Rx   d 8 4F 3E 6C 44 07 7C 2F 00
   6.390000 1      201             Rx   d 8 4F 3E 80 44 07 7F 24 00
   6.390000 1      384             Rx   d 8 9F 0D BE 14 F7 46 42 00
   6.390000 1      528             Rx   d 8 07 89 07 5F 07 62 07 69
   6.390000 1      648             Rx   d 8 20 4E 0F A0 00 00 00 00
   6.390000 1      800             Rx   d 8 00 40 00 00 00 00 00 00
   6.400000 1      201             Rx   d 8 4F 3E 94 44 07 82 22 00
   6.410000 1      201             Rx   d 8 4F 3E A8 44 07 85 2D 00
   6.410000 1      528             Rx   d 8 07 84 07 8D 07 95 07 99
   6.420000 1      201             Rx   d 8 4F 3E BC 44 07 88 2B 00
   6.430000 1      201             Rx   d 8 4F 3E D0 44 07 8B 2C 00
   6.430000 1      528             Rx   d 8 07 79 07 72 07 A9 07 83
   6.440000 1      201             Rx   d 8 4F 3E E4 44 07 8E 2C 00
   6.440000 1      648             Rx   d 8 20 4E 0F B9 00 00 00 00
   6.450000 1      201             Rx   d 8 4F 3E F8 44 07 91 2D 00
   6.450000 1      528             Rx   d 8 07 90 07 72 07 9D 07 76
   6.460000 1      201             Rx   d 8 4F 3F 0C 44 07 94 31 00
   6.470000 1      201             Rx   d 8 4F 3F 20 44 07 97 22 00
   6.470000 1      528             Rx   d 8 07 7E 07 B7 07 9F 07 AA
   6.480000 1      201             Rx   d 8 50 3F 34 44 07 9A 26 00
   6.490000 1      201             Rx   d 8 50 3F 48 44 07 9D 32 00
   6.490000 1      384             Rx   d 8 9F 0D D5 13 CA 45 3F 00
   6.490000 1      528             Rx   d 8 07 76 07 A1 07 80 07 94
   6.490000 1      648             Rx   d 8 20 4E 0F D2 00 00 00 00
   6.500000 1      201             Rx   d 8 50 3F 5C 44 07 A0 21 00
   6.510000 1      201             Rx   d 8 50 3F 70 44 07 A3 25 00
   6.510000 1      528             Rx   d 8 07 CB 07 9A 07 90 07 A8
   6.520000 1      201             Rx   d 8 50 3F 84 44 07 A6 1E 00
   6.530000 1      201             Rx   d 8 50 3F 98 44 07 A9 20 00
   6.530000 1      528             Rx   d 8 07 BF 07 A0 07 B2 07 8C
   6.540000 1      201             Rx   d 8 51 3F AC 44 07 AC 30 00
   6.540000 1      648             Rx   d 8 20 4E 0F EB 00 00 00 00
   6.550000 1      201             Rx   d 8 51 3F C0 44 07 AF 2B 00
   6.550000 1      528             Rx   d 8 07 A6 07 C7 07 9F 07 99
   6.560000 1      201             Rx   d 8 51 3F D4 44 07 B2 26 00
   6.570000 1      201             Rx   d 8 51 3F E8 44 07 B5 2D 00
   6.570000 1      528             Rx   d 8 07 AB 07 92 07 CE 07 A1
   6.580000 1      201             Rx   d 8 51 3F FC 44 07 B8 2D 00
   6.590000 1      201             Rx   d 8 51 40 10 44 07 BB 30 00
   6.590000 1      384             Rx   d 8 9F 0F 74 13 FE 46 41 00
   6.590000 1      528             Rx   d 8 07 A3 07 93 07 B8 07 BE
   6.590000 1      648             Rx   d 8 20 4E 10 04 00 00 00 00
   6.590000 1      800             Rx   d 8 00 40 00 00 00 00 00 00
   6.600000 1      201             Rx   d 8 51 40 24 44 07 BE 2D 00
   6.610000 1      201             Rx   d 8 51 40 38 44 07 C1 1F 00
   6.610000 1      528             Rx   d 8 07 C2 07 9C 07 B7 07 DC
   6.620000 1      201             Rx   d 8 52 40 4C 44 07 C4 27 00
   6.630000 1      201             Rx   d 8 52 40 60 44 07 C7 21 00
   6.630000 1      528             Rx   d 8 07 AD 07 B1 07 C0 07 C4
   6.640000 1      201             Rx   d 8 52 40 74 44 07 CB 2A 00
   6.640000 1      648             Rx   d 8 20 4E 10 1D 00 00 00 00
   6.650000 1      201             Rx   d 8 52 40 88 44 07 CE 2E 00
   6.650000 1      528             Rx   d 8 07 F0 07 EB 07 D4 07 CD
   6.660000 1      201             Rx   d 8 52 40 9C 44 07 D1 24 00
   6.670000 1      201             Rx   d 8 53 40 B0 44 07 D4 1F 00
   6.670000 1      528             Rx   d 8 07 EB 07 E8 07 DB 07 C6
   6.680000 1      201             Rx   d 8 53 40 C4 44 07 D7 29 00
   6.690000 1      201             Rx   d 8 53 40 D8 44 07 DA 32 00
   6.690000 1      384             Rx   d 8 9F 0D C8 14 50 42 41 00
   6.690000 1      528             Rx   d 8 07 C6 08 08 07 E9 07 D8
   6.690000 1      648             Rx   d 8 20 4E 10 36 00 00 00 00
   6.700000 1      201             Rx   d 8 53 40 EC 44 07 DD 31 00
   6.710000 1      201             Rx   d 8 53 41 00 44 07 E0 20 00
   6.710000 1      528             Rx   d 8 07 C7 07 D4 07 E4 07 CA
   6.720000 1      201             Rx   d 8 53 41 14 44 07 E3 2A 00
   6.730000 1      201             Rx   d 8 53 41 28 44 07 E6 2C 00
   6.730000 1      528             Rx   d 8 08 0B 07 D4 07 D6 07 E3
   6.740000 1      201             Rx   d 8 53 41 3C 44 07 E9 32 00
   6.740000 1      648             Rx   d 8 20 4E 10 4F 00 00 00 00
   6.750000 1      201             Rx   d 8 53 41 50 44 07 EC 2A 00
   6.750000 1      528             Rx   d 8 07 E8 07 C8 07 DA 07 E0
   6.760000 1      201             Rx   d 8 54 41 64 44 07 EF 2A 00
   6.770000 1      201             Rx   d 8 54 41 78 44 07 F2 1F 00
   6.770000 1      528             Rx   d 8 07 E6 08 05 07 ED 08 0D
   6.780000 1      201             Rx   d 8 54 41 8C 44 07 F5 29 00
   6.790000 1      201             Rx   d 8 54 41 A0 44 07 F8 27 00
   6.790000 1      384             Rx   d 8 9F 0F 96 13 E4 41 44 00
   6.790000 1      528             Rx   d 8 07 CE 07 CA 08 15 07 E7
   6.790000 1      648             Rx   d 8 20 4E 10 68 00 00 00 00
   6.790000 1      800             Rx   d 8 00 40 00 00 00 00 00 00
   6.800000 1      201             Rx   d 8 54 41 B4 44 07 FB 2D 00
   6.810000 1      201             Rx   d 8 54 41 C8 44 07 FE 1F 00
   6.810000 1      528             Rx   d 8 08 10 07 E5 08 09 08 0A
   6.820000 1      201             Rx   d 8 54 41 DC 44 08 01 31 00
   6.830000 1      201             Rx   d 8 54 41 F0 44 08 04 2E 00
   6.830000 1      528             Rx   d 8 08 1E 07 F8 08 00 07 FB
   6.840000 1      201             Rx   d 8 54 42 04 44 08 07 2B 00
   6.840000 1      648             Rx   d 8 20 4E 10 81 00 00 00 00
   6.850000 1      201             Rx   d 8 55 42 18 44 08 0A 21 00
   6.850000 1      528             Rx   d 8 08 1C 08 09 07 FD 08 20
   6.860000 1      201             Rx   d 8 55 42 2C 44 08 0D 24 00
   6.870000 1      201             Rx   d 8 55 42 40 44 08 10 25 00
   6.870000 1      528             Rx   d 8 07 F2 07 DE 08 21 08 1A
   6.880000 1      201             Rx   d 8 55 42 54 44 08 13 20 00
   6.890000 1      201             Rx   d 8 55 42 68 44 08 16 21 00
   6.890000 1      384             Rx   d 8 9F 0E 16 13 2B 46 41 00
   6.890000 1      528             Rx   d 8 07 E4 07 ED 08 19 08 0D
   6.890000 1      648             Rx   d 8 20 4E 10 9A 00 00 00 00
   6.900000 1      201             Rx   d 8 55 42 7C 44 08 19 23 00
   6.910000 1      201             Rx   d 8 55 42 90 44 08 1C 25 00
   6.910000 1      528             Rx   d 8 08 0C 08 33 08 23 08 22
   6.920000 1      201             Rx   d 8 56 42 A4 44 08 1F 32 00
   6.930000 1      201             Rx   d 8 56 42 B8 44 08 22 2C 00
   6.930000 1      528             Rx   d 8 08 11 07 FA 08 2A 08 2A
   6.940000 1      201             Rx   d 8 56 42 CC 44 08 25 21 00
   6.940000 1      648             Rx   d 8 20 4E 10 B3 00 00 00 00
   6.950000 1      201             Rx   d 8 56 42 E0 44 08 28 25 00
   6.950000 1      528             Rx   d 8 08 03 08 0E 08 1E 08 11
   6.960000 1      201             Rx   d 8 56 42 F4 44 08 2B 24 00
   6.970000 1      201             Rx   d 8 56 43 08 44 08 2E 1E 00
   6.970000 1      528             Rx   d 8 08 58 08 36 08 18 08 19
   6.980000 1      201             Rx   d 8 57 43 1C 44 08 31 2C 00
   6.990000 1      201             Rx   d 8 57 43 30 44 08 34 31 00
   6.990000 1      384             Rx   d 8 9F 0E 7C 13 82 45 41 00
   6.990000 1      528             Rx   d 8 08 47 08 2F 08 2A 08 2A
   6.990000 1      648             Rx   d 8 20 4E 10 CC 00 00 00 00
   6.990000 1      800             Rx   d 8 00 40 00 00 00 00 00 00
   7.000000 1      201             Rx   d 8 57 43 44 44 08 37 32 00
   7.010000 1      201             Rx   d 8 57 43 58 44 08 3A 2A 00
   7.010000 1      528             Rx   d 8 08 66 08 1D 08 22 08 4E
   7.020000 1      201             Rx   d 8 57 43 6C 44 08 3D 1F 00
   7.030000 1      201             Rx   d 8 58 43 80 44 08 40 31 00
   7.030000 1      528             Rx   d 8 08 1C 08 16 08 5A 08 40
   7.040000 1      201             Rx   d 8 58 43 94 44 08 43 24 00
   7.040000 1      648             Rx   d 8 20 4E 10 E5 00 00 00 00
   7.050000 1      201             Rx   d 8 58 43 A8 44 08 46 24 00
   7.050000 1      528             Rx   d 8 08 5F 08 5B 08 41 08 47
   7.060000 1      201             Rx   d 8 58 43 BC 44 08 49 29 00
   7.070000 1      201             Rx   d 8 58 43 D0 44 08 4C 1F 00
   7.070000 1      528             Rx   d 8 08 2C 08 1A 08 41 08 4F
   7.080000 1      201             Rx   d 8 59 43 E4 44 08 4F 2D 00
   7.090000 1      201             Rx   d 8 59 43 F8 44 08 52 23 00
   7.090000 1      384             Rx   d 8 9F 0D C0 14 56 48 40 00
   7.090000 1      528             Rx   d 8 08 4A 08 4A 08 46 08 5C
   7.090000 1      648             Rx   d 8 20 4E 10 FE 00 00 00 00
   7.100000 1      201             Rx   d 8 59 44 0C 44 08 55 24 00
   7.110000 1      201             Rx   d 8 59 44 20 44 08 58 31 00
   7.110000 1      528             Rx   d 8 08 47 08 6D 08 61 08 53
   7.120000 1      201             Rx   d 8 59 44 34 44 08 5B 27 00
   7.130000 1      201             Rx   d 8 59 44 48 44 08 5E 2B 00
   7.130000 1      528             Rx   d 8 08 4E 08 3A 08 4B 08 5D
   7.140000 1      201             Rx   d 8 5A 44 5C 44 08 61 2D 00
   7.140000 1      648             Rx   d 8 20 4E 11 17 00 00 00 00
   7.150000 1      201             Rx   d 8 5A 44 70 44 08 64 27 00
   7.150000 1      528             Rx   d 8 08 48 08 8C 08 6D 08 74
   7.160000 1      201             Rx   d 8 5A 44 84 44 08 67 1F 00
   7.170000 1      201             Rx   d 8 5A 44 98 44 08 6A 1F 00
   7.170000 1      528             Rx   d 8 08 45 08 40 08 73 08 63
   7.180000 1      201             Rx   d 8 5A 44 AC 44 08 6D 2A 00
   7.190000 1      201             Rx   d 8 5A 44 C0 44 08 70 2F 00
   7.190000 1      384             Rx   d 8 9F 0D D4 13 E5 46 41 00
   7.190000 1      528             Rx   d 8 08 4D 08 8A 08 71 08 68
   7.190000 1      648             Rx   d 8 20 4E 11 30 00 00 00 00
   7.190000 1      800             Rx   d 8 00 40 00 00 00 00 00 00
   7.200000 1      201             Rx   d 8 5A 44 D4 44 08 73 2E 00
   7.210000 1      201             Rx   d 8 5A 44 E8 44 08 76 2F 00
   7.210000 1      528             Rx   d 8 08 81 08 5D 08 70 08 81
   7.220000 1      201             Rx   d 8 5A 44 FC 44 08 79 29 00
   7.230000 1      201             Rx   d 8 5B 45 10 44 08 7C 25 00
   7.230000 1      528             Rx   d 8 08 A0 08 5C 08 7A 08 7F
   7.240000 1      201             Rx   d 8 5B 45 24 44 08 7F 23 00
   7.240000 1      648             Rx   d 8 20 4E 11 49 00 00 00 00
   7.250000 1      201             Rx   d 8 5B 45 38 44 08 82 27 00
   7.250000 1      528             Rx   d 8 08 7F 08 6D 08 92 08 7A
   7.260000 1      201             Rx   d 8 5B 45 4C 44 08 85 29 00
   7.270000 1      201             Rx   d 8 5B 45 60 44 08 88 2A 00
   7.270000 1      528             Rx   d 8 08 61 08 95 08 76 08 8D
   7.280000 1      201             Rx   d 8 5B 45 74 44 08 8B 32 00
   7.290000 1      201             Rx   d 8 5B 45 88 44 08 8E 24 00
   7.290000 1      384             Rx   d 8 9F 0E 6F 13 47 4A 44 00
   7.290000 1      528             Rx   d 8 08 BF 08 69 08 9F 08 97
   7.290000 1      648             Rx   d 8 20 4E 11 62 00 00 00 00
   7.300000 1      201             Rx   d 8 5B 45 9C 44 08 91 1F 00
   7.310000 1      201             Rx   d 8 5C 45 B0 44 08 94 2F 00
   7.310000 1      528             Rx   d 8 08 97 08 BE 08 B1 08 7D
   7.320000 1      201             Rx   d 8 5C 45 C4 44 08 97 24 00
   7.330000 1      201             Rx   d 8 5C 45 D8 44 08 9A 1E 00
   7.330000 1      528             Rx   d 8 08 95 08 79 08 88 08 B7
   7.340000 1      201             Rx   d 8 5C 45 EC 44 08 9D 2E 00
   7.340000 1      648             Rx   d 8 20 4E 11 7B 00 00 00 00
   7.350000 1      201             Rx   d 8 5C 46 00 44 08 A0 24 00
   7.350000 1      528             Rx   d 8 08 71 08 CD 08 82 08 B7
   7.360000 1      201             Rx   d 8 5D 46 14 44 08 A3 2D 00
   7.370000 1      201             Rx   d 8 5D 46 28 44 08 A6 2E 00
   7.370000 1      528             Rx   d 8 08 BD 08 7F 08 8E 08 B4
   7.380000 1      201             Rx   d 8 5D 46 3C 44 08 A9 32 00
   7.390000 1      201             Rx   d 8 5D 46 50 44 08 AC 29 00
   7.390000 1      384             Rx   d 8 9F 0D CF 15 56 4A 45 00
   7.390000 1      528             Rx   d 8 08 D0 08 93 08 8F 08 9D
   7.390000 1      648             Rx   d 8 20 4E 11 94 00 00 00 00
   7.390000 1      800             Rx   d 8 00 40 00 00 00 00 00 00
   7.400000 1      201             Rx   d 8 5D 46 64 44 08 AF 22 00
   7.410000 1      201             Rx   d 8 5D 46 78 44 08 B2 22 00
   7.410000 1      528             Rx   d 8 08 88 08 C2 08 A6 08 CB
   7.420000 1      201             Rx   d 8 5D 46 8C 44 08 B5 29 00
   7.430000 1      201             Rx   d 8 5D 46 A0 44 08 B8 22 00
   7.430000 1      528             Rx   d 8 08 E3 08 CA 08 AF 08 AE
   7.440000 1      201             Rx   d 8 5D 46 B4 44 08 BB 25 00
   7.440000 1      648             Rx   d 8 20 4E 11 AD 00 00 00 00
   7.450000 1      201             Rx   d 8 5D 46 C8 44 08 BE 2F 00
   7.450000 1      528             Rx   d 8 08 D9 08 E2 08 A1 08 C4
   7.460000 1      201             Rx   d 8 5E 46 DC 44 08 C1 2F 00
   7.470000 1      201             Rx   d 8 5E 46 F0 44 08 C4 24 00
   7.470000 1      528             Rx   d 8 08 BE 08 92 08 DB 08 AB
   7.480000 1      201             Rx   d 8 5E 47 04 44 08 C7 23 00
   7.490000 1      201             Rx   d 8 5E 47 18 44 08 CA 29 00
   7.490000 1      384             Rx   d 8 9F 0F 05 13 D0 44 3F 00
   7.490000 1      528             Rx   d 8 08 B3 08 B4 08 C0 08 B1
   7.490000 1      648             Rx   d 8 20 4E 11 C6 00 00 00 00
   7.500000 1      201             Rx   d 8 5E 47 2C 44 08 CD 26 00
   7.510000 1      201             Rx   d 8 5E 47 40 44 08 D0 2B 00
   7.510000 1      528             Rx   d 8 08 FC 08 C2 08 DC 08 EB
   7.520000 1      201             Rx   d 8 5E 47 54 44 08 D3 2B 00
   7.530000 1      201             Rx   d 8 5E 47 68 44 08 D6 29 00
   7.530000 1      528             Rx   d 8 08 E0 08 BE 08 D2 08 EC
   7.540000 1      201             Rx   d 8 5E 47 7C 44 08 D9 1F 00
   7.540000 1      648             Rx   d 8 20 4E 11 DF 00 00 00 00
   7.550000 1      201             Rx   d 8 5E 47 90 44 08 DC 25 00
   7.550000 1      528             Rx   d 8 08 BE 08 B7 08 F4 08 D9
   7.560000 1      201             Rx   d 8 5E 47 A4 44 08 DF 30 00
   7.570000 1      201             Rx   d 8 5E 47 B8 44 08 E2 2D 00
   7.570000 1      528             Rx   d 8 08 EE 09 09 08 C8 08 F0
   7.580000 1      201             Rx   d 8 5F 47 CC 44 08 E5 2F 00
   7.590000 1      201             Rx   d 8 5F 47 E0 44 08 E8 24 00
   7.590000 1      384             Rx   d 8 9F 0F 58 14 45 49 44 00
   7.590000 1      528             Rx   d 8 08 E6 09 05 08 E3 08 D0
   7.590000 1      648             Rx   d 8 20 4E 11 F8 00 00 00 00
   7.590000 1      800             Rx   d 8 00 40 00 00 00 00 00 00
   7.600000 1      201             Rx   d 8 5F 47 F4 44 08 EB 28 00
   7.610000 1      201             Rx   d 8 5F 48 08 44 08 EE 2F 00
   7.610000 1      528             Rx   d 8 08 D3 09 18 08 F5 08 EB
   7.620000 1      201             Rx   d 8 5F 48 1C 44 08 F1 29 00
   7.630000 1      201             Rx   d 8 5F 48 30 44 08 F4 24 00
   7.630000 1      528             Rx   d 8 08 F1 08 DE 08 EA 09 05
   7.640000 1      201             Rx   d 8 60 48 44 44 08 F7 28 00
   7.640000 1      648             Rx   d 8 20 4E 12 11 00 00 00 00
   7.650000 1      201             Rx   d 8 60 48 58 44 08 FA 2C 00
   7.650000 1      528             Rx   d 8 09 05 08 D3 09 00 09 0C
   7.660000 1      201             Rx   d 8 60 48 6C 44 08 FD 30 00
   7.670000 1      201             Rx   d 8 60 48 80 44 09 00 29 00
   7.670000 1      528             Rx   d 8 08 EE 09 11 09 05 08 FD
   7.680000 1      201             Rx   d 8 60 48 94 44 09 03 22 00
   7.690000 1      201             Rx   d 8 60 48 A8 44 09 06 2D 00
   7.690000 1      384             Rx   d 8 9F 0F 26 14 49 42 41 00
   7.690000 1      528             Rx   d 8 09 2F 08 EA 08 F1 09 19
   7.690000 1      648             Rx   d 8 20 4E 12 2A 00 00 00 00
   7.700000 1      201             Rx   d 8 61 48 BC 44 09 09 2B 00
   7.710000 1      201             Rx   d 8 61 48 D0 44 09 0C 30 00
   7.710000 1      528             Rx   d 8 09 33 08 EA 09 0A 09 17
   7.720000 1      201             Rx   d 8 61 48 E4 44 09 0F 29 00
   7.730000 1      201             Rx   d 8 61 48 F8 44 09 12 2D 00
   7.730000 1      528             Rx   d 8 09 0F 09 2D 09 06 09 03
   7.740000 1      201             Rx   d 8 61 49 0C 44 09 15 26 00
   7.740000 1      648             Rx   d 8 20 4E 12 43 00 00 00 00
   7.750000 1      201             Rx   d 8 61 49 20 44 09 18 28 00
   7.750000 1      528             Rx   d 8 08 FA 09 05 09 11 09 14
   7.760000 1      201             Rx   d 8 61 49 34 44 09 1B 2E 00
   7.770000 1      201             Rx   d 8 61 49 48 44 09 1E 31 00
   7.770000 1      528             Rx   d 8 09 08 09 02 09 0B 09 34
   7.780000 1      201             Rx   d 8 61 49 5C 44 09 21 1F 00
   7.790000 1      201             Rx   d 8 61 49 70 44 09 24 21 00
   7.790000 1      384             Rx   d 8 9F 0E 9D 13 AD 49 40 00
   7.790000 1      528             Rx   d 8 09 39 09 55 09 2A 09 13
   7.790000 1      648             Rx   d 8 20 4E 12 5C 00 00 00 00
   7.790000 1      800             Rx   d 8 00 40 00 00 00 00 00 00
   7.800000 1      201             Rx   d 8 62 49 84 44 09 27 1F 00
   7.810000 1      201             Rx   d 8 62 49 98 44 09 2A 25 00
   7.810000 1      528             Rx   d 8 09 0F 09 54 09 34 09 21
   7.820000 1      201             Rx   d 8 62 49 AC 44 09 2D 2A 00
   7.830000 1      201             Rx   d 8 62 49 C0 44 09 30 22 00
   7.830000 1      528             Rx   d 8 09 0E 09 10 09 37 09 40
   7.840000 1      201             Rx   d 8 62 49 D4 44 09 33 2D 00
   7.840000 1      648             Rx   d 8 20 4E 12 75 00 00 00 00
   7.850000 1      201             Rx   d 8 62 49 E8 44 09 36 23 00
   7.850000 1      528             Rx   d 8 09 47 09 3D 09 1B 09 1D
   7.860000 1      201             Rx   d 8 62 49 FC 44 09 39 27 00
   7.870000 1      201             Rx   d 8 62 4A 10 44 09 3C 2B 00
   7.870000 1      528             Rx   d 8 09 53 09 50 09 3F 09 2F
   7.880000 1      201             Rx   d 8 63 4A 24 44 09 3F 26 00
   7.890000 1      201             Rx   d 8 63 4A 38 44 09 42 30 00
   7.890000 1      384             Rx   d 8 9F 0D DB 14 9C 48 43 00
   7.890000 1      528             Rx   d 8 09 3E 09 4E 09 24 09 46
   7.890000 1      648             Rx   d 8 20 4E 12 8E 00 00 00 00
   7.900000 1      201             Rx   d 8 63 4A 4C 44 09 45 2D 00
   7.910000 1      201             Rx   d 8 63 4A 60 44 09 48 1F 00
   7.910000 1      528             Rx   d 8 09 35 09 60 09 5F 09 41
   7.920000 1      201             Rx   d 8 63 4A 74 44 09 4B 30 00
   7.930000 1      201             Rx   d 8 63 4A 88 44 09 4E 26 00
   7.930000 1      528             Rx   d 8 09 7D 09 49 09 3D 09 39
   7.940000 1      201             Rx   d 8 63 4A 9C 44 09 51 26 00
   7.940000 1      648             Rx   d 8 20 4E 12 A7 00 00 00 00
   7.950000 1      201             Rx   d 8 63 4A B0 44 09 54 2E 00
